Time Stamp,ID,Extended,Dir,Bus,LEN,D1,D2,D3,D4,D5,D6,D7,D8
18445038725669004535,00000285,false,Rx,0,8,00,00,02,19,76,00,08,10,
18445038725669004791,00000362,false,Rx,0,8,02,01,00,00,00,00,00,00,
18445038725669005047,00000377,false,Rx,0,8,04,AB,00,05,3D,40,3C,20,
18445038725667587265,00000289,false,Rx,0,8,27,10,4E,20,00,06,11,10,
18445038725667587521,0000029A,false,Rx,0,8,02,36,34,34,FF,FF,FF,FF,
18445038725667589868,00000288,false,Rx,0,8,27,10,4E,20,00,06,01,10,
18445038725667590593,0000028B,false,Rx,0,8,27,10,4E,20,00,06,01,10,
18445038725667590892,0000056A,false,Rx,0,8,02,8A,0A,80,A8,A0,AA,8A,
18445038725667591148,00000734,false,Rx,0,8,03,E8,03,E8,64,64,3D,3D,
18445038725667591361,00000373,false,Rx,0,8,BA,B9,7F,BC,0C,5C,80,16,
18445038725667592044,00000287,false,Rx,0,8,27,10,27,10,27,10,00,00,
18445038725667594519,00000285,false,Rx,0,8,00,00,02,19,76,00,08,10,
18445038725667594775,00000362,false,Rx,0,8,02,01,00,00,00,00,00,00,
18445038725667595031,0000038A,false,Rx,0,8,3F,3C,00,00,04,00,00,00,
18445038725667597036,00000370,false,Rx,0,8,05,BE,00,00,00,00,00,00,
18445038725667597249,00000289,false,Rx,0,8,27,10,4E,20,00,06,11,10,
18445038725667597505,00000566,false,Rx,0,8,02,8A,0A,80,A8,A0,AA,8A,
18445038725667597761,00000732,false,Rx,0,8,03,E8,03,E8,64,64,0D,3E,
18445038725667599937,00000288,false,Rx,0,8,27,10,4E,20,00,06,01,10,
18445038725667600193,00000564,false,Rx,0,8,02,8A,AA,8A,A8,A0,AA,8A,
18445038725667600449,00000424,false,Rx,0,8,04,75,04,1F,86,A9,02,00,
18445038725667600662,0000028B,false,Rx,0,8,27,10,4E,20,00,06,01,10,
18445038725667600876,0000075A,false,Rx,0,8,03,E8,03,E8,64,64,3C,3C,
18445038725667601132,0000056B,false,Rx,0,8,AA,02,00,00,80,AA,01,00,
18445038725667601345,00000373,false,Rx,0,8,BA,B9,7F,BC,0C,5C,80,16,
18445038725667602028,00000287,false,Rx,0,8,27,10,27,10,27,10,00,00,
18445038725667604502,00000285,false,Rx,0,8,00,00,02,19,76,00,08,10,
18445038725667604758,00000362,false,Rx,0,8,02,01,00,00,00,00,00,00,
18445038725667605014,00000377,false,Rx,0,8,04,AB,00,05,3D,40,3C,20,
18445038725667606337,00000374,false,Rx,0,8,79,7C,7D,FE,3F,3E,3A,30,
18445038725667607276,00000289,false,Rx,0,8,27,10,4E,20,00,06,11,10,
18445038725667607574,00000567,false,Rx,0,8,AA,02,00,00,80,AA,00,00,
18445038725667609878,00000288,false,Rx,0,8,27,10,4E,20,00,06,01,10,
18445038725667610134,00000565,false,Rx,0,8,AA,02,00,00,80,AA,00,00,
18445038725667610604,0000028B,false,Rx,0,8,27,10,4E,20,00,06,01,10,
18445038725667610902,0000056F,false,Rx,0,8,2A,88,2A,08,00,00,28,0A,
18445038725667611158,00000734,false,Rx,0,8,03,E8,03,E8,64,64,3D,3D,
18445038725667611414,00000373,false,Rx,0,8,BA,B9,7F,BC,0C,5C,80,16,
18445038725667612012,00000287,false,Rx,0,8,27,10,27,10,27,10,00,00,
18445038725667614529,00000285,false,Rx,0,8,00,00,02,19,76,00,08,10,
18445038725667614742,00000362,false,Rx,0,8,02,01,00,00,00,00,00,00,
18445038725667614998,00000389,false,Rx,0,8,02,00,00,3C,3C,00,00,00,
18445038725667616321,00000375,false,Rx,0,8,0F,0F,00,17,98,00,00,00,
18445038725667617004,00000370,false,Rx,0,8,05,BE,00,00,00,00,00,00,
18445038725667617302,00000289,false,Rx,0,8,27,10,4E,20,00,06,11,10,
18445038725667617558,0000056D,false,Rx,0,8,2A,00,00,00,00,00,28,0A,
18445038725667617814,00000732,false,Rx,0,8,03,E8,03,E8,64,64,0D,3E,
18445038725667619521,00000371,false,Rx,0,8,0A,00,00,00,00,00,00,00,
18445038725667619990,00000288,false,Rx,0,8,27,10,4E,20,00,06,01,10,
18445038725667620246,0000056C,false,Rx,0,8,2A,88,02,00,00,00,28,0A,
18445038725667620502,00000154,false,Rx,0,8,99,99,30,99,16,11,F8,5C,
18445038725667620715,0000028B,false,Rx,0,8,27,10,4E,20,00,06,01,10,
18445038725667620971,0000075A,false,Rx,0,8,03,E8,03,E8,64,64,3C,3C,
18445038725667621313,00000373,false,Rx,0,8,BA,B9,7F,BC,0C,5C,80,16,
18445038725667621995,00000287,false,Rx,0,8,27,10,27,10,27,10,00,00,
18445038725667623830,000005A1,false,Rx,0,8,2A,A2,AA,2A,A2,8A,82,A2,
18445038725667624470,00000285,false,Rx,0,8,00,00,02,19,76,00,08,10,
18445038725667624726,00000362,false,Rx,0,8,02,01,00,00,00,00,00,00,
18445038725667624982,00000377,false,Rx,0,8,04,AB,00,05,3D,40,3C,20,
18445038725667626987,00000286,false,Rx,0,8,00,00,00,3D,00,00,0A,00,
18445038725667627329,00000289,false,Rx,0,8,27,10,4E,20,00,06,11,10,
18445038725667629846,00000288,false,Rx,0,8,27,10,4E,20,00,06,01,10,
18445038725667630571,0000028B,false,Rx,0,8,27,10,4E,20,00,06,01,10,
18445038725667630827,0000029B,false,Rx,0,8,43,3D,43,3D,3B,0A,14,3E,
18445038725667631083,00000734,false,Rx,0,8,03,E8,03,E8,64,64,3D,3D,
18445038725667631297,00000373,false,Rx,0,8,BA,B9,7F,BC,0C,5C,80,16,
18445038725667631979,00000287,false,Rx,0,8,27,10,27,10,27,10,00,00,
18445038725667633089,00000185,false,Rx,0,8,08,00,19,00,00,00,00,00,
18445038725667634497,00000285,false,Rx,0,8,00,00,02,19,76,00,08,10,
18445038725667634710,00000362,false,Rx,0,8,02,01,00,00,00,00,00,00,
18445038725667635009,00000664,false,Rx,0,8,02,83,06,32,F3,00,00,00,
18445038725667636971,00000370,false,Rx,0,8,05,BE,00,00,00,00,00,00,
18445038725667637270,00000289,false,Rx,0,8,27,10,4E,20,00,06,11,10,
18445038725667637569,00000299,false,Rx,0,8,39,3B,40,42,3B,00,00,00,
18445038725667637867,00000732,false,Rx,0,8,03,E8,03,E8,64,64,0D,3E,
18445038725667639873,00000288,false,Rx,0,8,27,10,4E,20,00,06,01,10,
18445038725667640129,00000424,false,Rx,0,8,04,75,04,1F,86,A9,02,00,
18445038725667640385,00000298,false,Rx,0,8,3C,3C,43,3D,3B,00,00,3E,
18445038725667640598,0000028B,false,Rx,0,8,27,10,4E,20,00,06,01,10,
18445038725667640854,0000075A,false,Rx,0,8,03,E8,03,E8,64,64,3C,3C,
18445038725667641067,0000056A,false,Rx,0,8,02,8A,0A,80,A8,A0,AA,8A,
18445038725667641323,00000373,false,Rx,0,8,BA,B9,7F,BC,0C,5C,80,16,
18445038725667641963,00000287,false,Rx,0,8,27,10,27,10,27,10,00,00,
18445038725667644438,00000285,false,Rx,0,8,00,00,02,19,76,00,08,10,
18445038725667644694,00000362,false,Rx,0,8,02,01,00,00,00,00,00,00,
18445038725667644992,00000377,false,Rx,0,8,04,AB,00,05,3D,40,3C,20,
18445038725667647254,00000289,false,Rx,0,8,27,10,4E,20,00,06,11,10,
18445038725667647510,00000566,false,Rx,0,8,02,8A,0A,80,A8,A0,AA,8A,
18445038725667649856,00000288,false,Rx,0,8,27,10,4E,20,00,06,01,10,
18445038725667650112,00000564,false,Rx,0,8,02,8A,AA,8A,A8,A0,AA,8A,
18445038725667650539,0000028B,false,Rx,0,8,27,10,4E,20,00,06,01,10,
18445038725667650795,0000056B,false,Rx,0,8,AA,02,00,00,80,AA,01,00,
18445038725667651094,00000734,false,Rx,0,8,03,E8,03,E8,64,64,3D,3D,
18445038725667651307,00000373,false,Rx,0,8,BA,B9,7F,BC,0C,5C,80,16,
18445038725667651563,000006FA,false,Rx,0,8,00,4A,4D,41,58,44,47,47,
18445038725667651947,00000287,false,Rx,0,8,27,10,27,10,27,10,00,00,
18445038725667654464,00000285,false,Rx,0,8,00,00,02,19,76,00,08,10,
18445038725667654678,00000362,false,Rx,0,8,02,01,00,00,00,00,00,00,
18445038725667655019,00000663,false,Rx,0,8,02,00,00,00,00,00,00,00,
18445038725667656939,00000370,false,Rx,0,8,05,BE,00,00,00,00,00,00,
18445038725667657238,00000289,false,Rx,0,8,27,10,4E,20,00,06,11,10,
18445038725667657494,00000567,false,Rx,0,8,AA,02,00,00,80,AA,00,00,
18445038725667657750,00000732,false,Rx,0,8,03,E8,03,E8,64,64,0D,3E,
18445038725667659883,00000288,false,Rx,0,8,27,10,4E,20,00,06,01,10,
18445038725667660182,00000565,false,Rx,0,8,AA,02,00,00,80,AA,00,00,
18445038725667660438,0000075A,false,Rx,0,8,03,E8,03,E8,64,64,3C,3C,
18445038725667660694,0000028B,false,Rx,0,8,27,10,4E,20,00,06,01,10,
18445038725667660950,0000056F,false,Rx,0,8,2A,88,2A,08,00,00,28,0A,
18445038725667661291,00000373,false,Rx,0,8,BA,B9,7F,BC,0C,5C,80,16,
18445038725667661931,00000287,false,Rx,0,8,27,10,27,10,27,10,00,00,
18445038725667664405,00000285,false,Rx,0,8,00,00,02,19,76,00,08,10,
18445038725667664661,00000362,false,Rx,0,8,02,01,00,00,00,00,00,00,
18445038725667664960,00000377,false,Rx,0,8,04,AB,00,05,3D,40,3C,20,
18445038725667667307,00000289,false,Rx,0,8,27,10,4E,20,00,06,11,10,
18445038725667667563,0000056D,false,Rx,0,8,2A,00,00,00,00,00,28,0A,
18445038725667669867,00000288,false,Rx,0,8,27,10,4E,20,00,06,01,10,
18445038725667670123,0000056C,false,Rx,0,8,2A,88,02,00,00,00,28,0A,
18445038725667670549,0000028B,false,Rx,0,8,27,10,4E,20,00,06,01,10,
18445038725667670805,00000734,false,Rx,0,8,03,E8,03,E8,64,64,3D,3D,
18445038725667671104,00000735,false,Rx,0,8,43,00,43,00,25,AB,A0,3D,
18445038725667671317,00000373,false,Rx,0,8,BA,B9,7F,BC,0C,5C,80,16,
18445038725667671915,00000287,false,Rx,0,8,27,10,27,10,27,10,00,00,
18445038725667673792,000005A1,false,Rx,0,8,2A,A2,AA,2A,A2,8A,82,A2,
18445038725667674432,00000285,false,Rx,0,8,00,00,02,19,76,00,08,10,
18445038725667674645,00000362,false,Rx,0,8,02,01,00,00,00,00,00,00,
18445038725667676907,00000370,false,Rx,0,8,05,BE,00,00,00,00,00,00,
18445038725667677291,00000289,false,Rx,0,8,27,10,4E,20,00,06,11,10,
18445038725667677547,00000732,false,Rx,0,8,03,E8,03,E8,64,64,0D,3E,
18445038725667677803,00000733,false,Rx,0,8,39,3A,39,3A,25,AB,A0,3B,
18445038725667678059,00000388,false,Rx,0,8,02,02,00,00,00,00,00,02,
18445038725667679893,00000288,false,Rx,0,8,27,10,4E,20,00,06,01,10,
18445038725667680192,0000075A,false,Rx,0,8,03,E8,03,E8,64,64,3C,3C,
18445038725667680448,00000424,false,Rx,0,8,04,75,04,1F,86,A9,02,00,
18445038725667680661,0000028B,false,Rx,0,8,27,10,4E,20,00,06,01,10,
18445038725667680917,0000075B,false,Rx,0,8,3C,00,3C,00,25,AB,A0,3C,
18445038725667681301,00000373,false,Rx,0,8,BA,B9,7F,BC,0C,5C,80,16,
18445038725667681899,00000287,false,Rx,0,8,27,10,27,10,27,10,00,00,
18445038725667684373,00000285,false,Rx,0,8,00,00,02,19,76,00,08,10,
18445038725667684672,00000362,false,Rx,0,8,02,01,00,00,00,00,00,00,
18445038725667684970,00000377,false,Rx,0,8,04,AB,00,05,3D,40,3C,20,
18445038725667687274,00000289,false,Rx,0,8,27,10,4E,20,00,06,11,10,
18445038725667687573,0000029A,false,Rx,0,8,00,4A,4D,41,58,44,47,47,
18445038725667689877,00000288,false,Rx,0,8,27,10,4E,20,00,06,01,10,
18445038725667690560,0000028B,false,Rx,0,8,27,10,4E,20,00,06,01,10,
18445038725667690816,0000056A,false,Rx,0,8,02,8A,0A,80,A8,A0,AA,8A,
18445038725667691114,00000734,false,Rx,0,8,03,E8,03,E8,64,64,3D,3D,
18445038725667691328,00000373,false,Rx,0,8,BA,B9,7F,BC,0C,5C,80,16,
18445038725667691882,00000287,false,Rx,0,8,27,10,27,10,27,10,00,00,
18445038725667694400,00000285,false,Rx,0,8,00,00,02,19,76,00,08,10,
18445038725667694656,00000362,false,Rx,0,8,02,01,00,00,00,00,00,00,
18445038725667694997,0000038A,false,Rx,0,8,3F,3C,00,00,04,00,00,00,
18445038725667696874,00000370,false,Rx,0,8,05,BE,00,00,00,00,00,00,
18445038725667697301,00000289,false,Rx,0,8,27,10,4E,20,00,06,11,10,
18445038725667697557,00000566,false,Rx,0,8,02,8A,0A,80,A8,A0,AA,8A,
18445038725667697856,00000732,false,Rx,0,8,03,E8,03,E8,64,64,0D,3E,
18445038725667699904,00000288,false,Rx,0,8,27,10,4E,20,00,06,01,10,
18445038725667700117,00000564,false,Rx,0,8,02,8A,AA,8A,A8,A0,AA,8A,
18445038725667700373,0000075A,false,Rx,0,8,03,E8,03,E8,64,64,3C,3C,
18445038725667700629,0000028B,false,Rx,0,8,27,10,4E,20,00,06,01,10,
18445038725667700928,0000056B,false,Rx,0,8,AA,02,00,00,80,AA,01,00,
18445038725667701312,00000373,false,Rx,0,8,BA,B9,7F,BC,0C,5C,80,16,
18445038725667701866,00000287,false,Rx,0,8,27,10,27,10,27,10,00,00,
18445038725667704341,00000285,false,Rx,0,8,00,00,02,19,76,00,08,10,
18445038725667704597,00000362,false,Rx,0,8,02,01,00,00,00,00,00,00,
18445038725667704981,00000377,false,Rx,0,8,04,AB,00,05,3D,40,3C,20,
18445038725667706303,00000374,false,Rx,0,8,79,7C,7D,FE,3F,3E,3A,30,
18445038725667707242,00000289,false,Rx,0,8,27,10,4E,20,00,06,11,10,
18445038725667707498,00000567,false,Rx,0,8,AA,02,00,00,80,AA,00,00,
18445038725667709845,00000288,false,Rx,0,8,27,10,4E,20,00,06,01,10,
18445038725667710101,00000565,false,Rx,0,8,AA,02,00,00,80,AA,00,00,
18445038725667710570,0000028B,false,Rx,0,8,27,10,4E,20,00,06,01,10,
18445038725667710869,0000056F,false,Rx,0,8,2A,88,2A,08,00,00,28,0A,
18445038725667711125,00000734,false,Rx,0,8,03,E8,03,E8,64,64,3D,3D,
18445038725667711338,00000373,false,Rx,0,8,BA,B9,7F,BC,0C,5C,80,16,
18445038725667711850,00000287,false,Rx,0,8,27,10,27,10,27,10,00,00,
18445038725667714367,00000285,false,Rx,0,8,00,00,02,19,76,00,08,10,
18445038725667714623,00000362,false,Rx,0,8,02,01,00,00,00,00,00,00,
18445038725667715007,00000389,false,Rx,0,8,02,00,00,3C,3C,00,00,00,
18445038725667716330,00000375,false,Rx,0,8,0F,0F,00,17,98,00,00,00,
18445038725667716842,00000370,false,Rx,0,8,05,BE,00,00,00,00,00,00,
18445038725667717226,00000289,false,Rx,0,8,27,10,4E,20,00,06,11,10,
18445038725667717482,0000056D,false,Rx,0,8,2A,00,00,00,00,00,28,0A,
18445038725667717738,00000732,false,Rx,0,8,03,E8,03,E8,64,64,0D,3E,
18445038725667719359,00000371,false,Rx,0,8,0A,00,00,00,00,00,00,00,
18445038725667720042,00000288,false,Rx,0,8,27,10,4E,20,00,06,01,10,
18445038725667720298,0000056C,false,Rx,0,8,2A,88,02,00,00,00,28,0A,
18445038725667720554,00000424,false,Rx,0,8,04,75,04,1F,86,A9,02,00,
18445038725667720767,0000028B,false,Rx,0,8,27,10,4E,20,00,06,01,10,
18445038725667721023,00000154,false,Rx,0,8,99,99,30,99,16,11,F8,5C,
18445038725667721237,0000075A,false,Rx,0,8,03,E8,03,E8,64,64,3C,3C,
18445038725667721450,00000373,false,Rx,0,8,BA,B9,7F,BC,0C,5C,80,16,
18445038725667721834,00000287,false,Rx,0,8,27,10,27,10,27,10,00,00,
18445038725667723797,000005A1,false,Rx,0,8,2A,A2,AA,2A,A2,8A,82,A2,
18445038725667724309,00000285,false,Rx,0,8,00,00,02,19,76,00,08,10,
18445038725667724693,00000362,false,Rx,0,8,02,01,00,00,00,00,00,00,
18445038725667724991,00000377,false,Rx,0,8,04,AB,00,05,3D,40,3C,20,
18445038725667726826,00000286,false,Rx,0,8,00,00,00,3D,00,00,0A,00,
18445038725667727338,00000289,false,Rx,0,8,27,10,4E,20,00,06,11,10,
18445038725667729855,00000288,false,Rx,0,8,27,10,4E,20,00,06,01,10,
18445038725667730623,0000028B,false,Rx,0,8,27,10,4E,20,00,06,01,10,
18445038725667730879,0000029B,false,Rx,0,8,43,3D,43,3D,3B,0A,14,3E,
18445038725667731135,00000734,false,Rx,0,8,03,E8,03,E8,64,64,3D,3D,
18445038725667731391,00000373,false,Rx,0,8,BA,B9,7F,BC,0C,5C,80,16,
18445038725667731818,00000287,false,Rx,0,8,27,10,27,10,27,10,00,00,
18445038725667733055,00000185,false,Rx,0,8,08,00,19,00,00,00,00,00,
18445038725667734335,00000285,false,Rx,0,8,00,00,02,19,76,00,08,10,
18445038725667734634,00000362,false,Rx,0,8,02,01,00,00,00,00,00,00,
18445038725667735018,00000569,false,Rx,0,8,AA,80,82,02,00,00,00,00,
18445038725667736810,00000370,false,Rx,0,8,05,BE,00,00,00,00,00,00,
18445038725667737279,00000289,false,Rx,0,8,27,10,4E,20,00,06,11,10,
18445038725667737492,00000299,false,Rx,0,8,39,3B,40,42,3B,00,00,00,
18445038725667737791,00000732,false,Rx,0,8,03,E8,03,E8,64,64,0D,3E,
18445038725667739882,00000288,false,Rx,0,8,27,10,4E,20,00,06,01,10,
18445038725667740180,00000298,false,Rx,0,8,3C,3C,43,3D,3B,00,00,3E,
18445038725667740436,0000075A,false,Rx,0,8,03,E8,03,E8,64,64,3C,3C,
18445038725667740650,0000028B,false,Rx,0,8,27,10,4E,20,00,06,01,10,
18445038725667740948,0000056A,false,Rx,0,8,02,8A,0A,80,A8,A0,AA,8A,
18445038725667741290,00000373,false,Rx,0,8,BA,B9,7F,BC,0C,5C,80,16,
18445038725667741802,00000287,false,Rx,0,8,27,10,27,10,27,10,00,00,
18445038725667744276,00000285,false,Rx,0,8,00,00,02,19,76,00,08,10,
18445038725667744575,00000362,false,Rx,0,8,02,01,00,00,00,00,00,00,
18445038725667745002,00000377,false,Rx,0,8,04,AB,00,05,3D,40,3C,20,
18445038725667747263,00000289,false,Rx,0,8,27,10,4E,20,00,06,11,10,
18445038725667747562,00000566,false,Rx,0,8,02,8A,0A,80,A8,A0,AA,8A,
18445038725667749865,00000288,false,Rx,0,8,27,10,4E,20,00,06,01,10,
18445038725667750121,00000564,false,Rx,0,8,02,8A,AA,8A,A8,A0,AA,8A,
18445038725667750548,0000028B,false,Rx,0,8,27,10,4E,20,00,06,01,10,
18445038725667750804,0000056B,false,Rx,0,8,AA,02,00,00,80,AA,01,00,
18445038725667751060,00000734,false,Rx,0,8,03,E8,03,E8,64,64,3D,3D,
18445038725667751316,000006FA,false,Rx,0,8,01,32,57,45,5A,43,30,36,
18445038725667751529,00000373,false,Rx,0,8,BA,B9,7F,BC,0C,5C,80,16,
18445038725667751785,00000287,false,Rx,0,8,27,10,27,10,27,10,00,00,
18445038725667754303,00000285,false,Rx,0,8,00,00,02,19,76,00,08,10,
18445038725667754644,00000362,false,Rx,0,8,02,01,00,00,00,00,00,00,
18445038725667754985,00000568,false,Rx,0,8,00,02,80,0A,00,00,A8,AA,
18445038725667756777,00000370,false,Rx,0,8,05,BE,00,00,00,00,00,00,
18445038725667757289,00000289,false,Rx,0,8,27,10,4E,20,00,06,11,10,
18445038725667757545,00000567,false,Rx,0,8,AA,02,00,00,80,AA,00,00,
18445038725667757844,00000732,false,Rx,0,8,03,E8,03,E8,64,64,0D,3E,
18445038725667759892,00000288,false,Rx,0,8,27,10,4E,20,00,06,01,10,
18445038725667760191,00000565,false,Rx,0,8,AA,02,00,00,80,AA,00,00,
18445038725667760532,0000028B,false,Rx,0,8,27,10,4E,20,00,06,01,10,
18445038725667760788,0000075A,false,Rx,0,8,03,E8,03,E8,64,64,3C,3C,
18445038725667761001,0000056F,false,Rx,0,8,2A,88,2A,08,00,00,28,0A,
18445038725667761257,00000424,false,Rx,0,8,04,75,04,1F,86,A9,02,00,
18445038725667761471,00000373,false,Rx,0,8,BA,B9,7F,BC,0C,5C,80,16,
18445038725667761769,00000287,false,Rx,0,8,27,10,27,10,27,10,00,00,
18445038725667764244,00000285,false,Rx,0,8,00,00,02,19,76,00,08,10,
18445038725667764671,00000362,false,Rx,0,8,02,01,00,00,00,00,00,00,
18445038725667764969,00000377,false,Rx,0,8,04,AB,00,05,3D,40,3C,20,
18445038725667767273,00000289,false,Rx,0,8,27,10,4E,20,00,06,11,10,
18445038725667767615,0000056D,false,Rx,0,8,2A,00,00,00,00,00,28,0A,
18445038725667769876,00000288,false,Rx,0,8,27,10,4E,20,00,06,01,10,
18445038725667770132,0000056C,false,Rx,0,8,2A,88,02,00,00,00,28,0A,
18445038725667770516,0000028B,false,Rx,0,8,27,10,4E,20,00,06,01,10,
18445038725667770772,00000734,false,Rx,0,8,03,E8,03,E8,64,64,3D,3D,
18445038725667771070,00000735,false,Rx,0,8,43,00,43,00,25,AB,A0,3D,
18445038725667771326,00000373,false,Rx,0,8,BA,B9,7F,BC,0C,5C,80,16,
18445038725667771753,00000287,false,Rx,0,8,27,10,27,10,27,10,00,00,
18445038725667773801,000005A1,false,Rx,0,8,2A,A2,AA,2A,A2,8A,82,A2,
18445038725667774270,00000285,false,Rx,0,8,00,00,02,19,76,00,08,10,
18445038725667774612,00000362,false,Rx,0,8,02,01,00,00,00,00,00,00,
18445038725667774996,00000563,false,Rx,0,8,00,20,80,A2,02,00,00,00,
18445038725667776745,00000370,false,Rx,0,8,05,BE,00,00,00,00,00,00,
18445038725667777300,00000289,false,Rx,0,8,27,10,4E,20,00,06,11,10,
18445038725667777598,00000732,false,Rx,0,8,03,E8,03,E8,64,64,0D,3E,
18445038725667777897,00000388,false,Rx,0,8,02,02,00,00,00,00,00,02,
18445038725667778110,00000733,false,Rx,0,8,39,3A,39,3A,25,AB,A0,3B,
18445038725667779902,00000288,false,Rx,0,8,27,10,4E,20,00,06,01,10,
18445038725667780116,0000075A,false,Rx,0,8,03,E8,03,E8,64,64,3C,3C,
18445038725667780372,0000075B,false,Rx,0,8,3C,00,3C,00,25,AB,A0,3C,
18445038725667780628,0000028B,false,Rx,0,8,27,10,4E,20,00,06,01,10,
18445038725667781310,00000373,false,Rx,0,8,BA,B9,7F,BC,0C,5C,80,16,
18445038725667781737,00000287,false,Rx,0,8,27,10,27,10,27,10,00,00,
18445038725667784212,00000285,false,Rx,0,8,00,00,02,19,76,00,08,10,
18445038725667784468,00000362,false,Rx,0,8,02,01,00,00,00,00,00,00,
18445038725667784980,00000377,false,Rx,0,8,04,AB,00,05,3D,40,3C,20,
18445038725667787241,00000289,false,Rx,0,8,27,10,4E,20,00,06,11,10,
18445038725667787497,0000029A,false,Rx,0,8,01,32,57,45,5A,43,30,36,
18445038725667789844,00000288,false,Rx,0,8,27,10,4E,20,00,06,01,10,
18445038725667790526,0000028B,false,Rx,0,8,27,10,4E,20,00,06,01,10,
18445038725667790782,0000056A,false,Rx,0,8,02,8A,0A,80,A8,A0,AA,8A,
18445038725667791081,00000734,false,Rx,0,8,03,E8,03,E8,64,64,3D,3D,
18445038725667791294,00000373,false,Rx,0,8,BA,B9,7F,BC,0C,5C,80,16,
18445038725667791721,00000287,false,Rx,0,8,27,10,27,10,27,10,00,00,
18445038725667794238,00000285,false,Rx,0,8,00,00,02,19,76,00,08,10,
18445038725667794622,00000362,false,Rx,0,8,02,01,00,00,00,00,00,00,
18445038725667795006,0000038A,false,Rx,0,8,3F,3C,00,00,04,00,00,00,
18445038725667796713,00000370,false,Rx,0,8,05,BE,00,00,00,00,00,00,
18445038725667797225,00000289,false,Rx,0,8,27,10,4E,20,00,06,11,10,
18445038725667797481,00000566,false,Rx,0,8,02,8A,0A,80,A8,A0,AA,8A,
18445038725667797779,00000732,false,Rx,0,8,03,E8,03,E8,64,64,0D,3E,
18445038725667799870,00000288,false,Rx,0,8,27,10,4E,20,00,06,01,10,
18445038725667800126,00000564,false,Rx,0,8,02,8A,AA,8A,A8,A0,AA,8A,
18445038725667800382,0000075A,false,Rx,0,8,03,E8,03,E8,64,64,3C,3C,
18445038725667800638,0000028B,false,Rx,0,8,27,10,4E,20,00,06,01,10,
18445038725667800851,00000424,false,Rx,0,8,04,75,04,1F,86,A9,02,00,
18445038725667801107,0000056B,false,Rx,0,8,AA,02,00,00,80,AA,01,00,
18445038725667801321,00000373,false,Rx,0,8,BA,B9,7F,BC,0C,5C,80,16,
18445038725667801705,00000287,false,Rx,0,8,27,10,27,10,27,10,00,00,
18445038725667804179,00000285,false,Rx,0,8,00,00,02,19,76,00,08,10,
18445038725667804734,00000362,false,Rx,0,8,02,01,00,00,00,00,00,00,
18445038725667804990,00000377,false,Rx,0,8,04,AB,00,05,3D,40,3C,20,
18445038725667806313,00000374,false,Rx,0,8,79,7C,7D,FE,3F,3E,3A,30,
18445038725667807294,00000289,false,Rx,0,8,27,10,4E,20,00,06,11,10,
18445038725667807550,00000567,false,Rx,0,8,AA,02,00,00,80,AA,00,00,
18445038725667809854,00000288,false,Rx,0,8,27,10,4E,20,00,06,01,10,
18445038725667810110,00000565,false,Rx,0,8,AA,02,00,00,80,AA,00,00,
18445038725667810537,0000028B,false,Rx,0,8,27,10,4E,20,00,06,01,10,
18445038725667810835,0000056F,false,Rx,0,8,2A,88,2A,08,00,00,28,0A,
18445038725667811091,00000734,false,Rx,0,8,03,E8,03,E8,64,64,3D,3D,
18445038725667811305,00000373,false,Rx,0,8,BA,B9,7F,BC,0C,5C,80,16,
18445038725667811689,00000287,false,Rx,0,8,27,10,27,10,27,10,00,00,
18445038725667814206,00000285,false,Rx,0,8,00,00,02,19,76,00,08,10,
18445038725667814675,00000362,false,Rx,0,8,02,01,00,00,00,00,00,00,
18445038725667814974,00000389,false,Rx,0,8,02,00,00,3C,3C,00,00,00,
18445038725667816296,00000375,false,Rx,0,8,0F,0F,00,17,98,00,00,00,
18445038725667816680,00000370,false,Rx,0,8,05,BE,00,00,00,00,00,00,
18445038725667817278,00000289,false,Rx,0,8,27,10,4E,20,00,06,11,10,
18445038725667817534,0000056D,false,Rx,0,8,2A,00,00,00,00,00,28,0A,
18445038725667817832,00000732,false,Rx,0,8,03,E8,03,E8,64,64,0D,3E,
18445038725667819198,00000371,false,Rx,0,8,0A,00,00,00,00,00,00,00,
18445038725667820051,00000288,false,Rx,0,8,27,10,4E,20,00,06,01,10,
18445038725667820264,00000154,false,Rx,0,8,99,99,30,99,16,11,F8,5C,
18445038725667820520,0000056C,false,Rx,0,8,2A,88,02,00,00,00,28,0A,
18445038725667820734,0000028B,false,Rx,0,8,27,10,4E,20,00,06,01,10,
18445038725667820990,0000075A,false,Rx,0,8,03,E8,03,E8,64,64,3C,3C,
18445038725667821288,00000373,false,Rx,0,8,BA,B9,7F,BC,0C,5C,80,16,
18445038725667821672,00000287,false,Rx,0,8,27,10,27,10,27,10,00,00,
18445038725667823806,000005A1,false,Rx,0,8,2A,A2,AA,2A,A2,8A,82,A2,
18445038725667824190,00000285,false,Rx,0,8,00,00,02,19,76,00,08,10,
18445038725667824531,00000362,false,Rx,0,8,02,01,00,00,00,00,00,00,
18445038725667825000,00000377,false,Rx,0,8,04,AB,00,05,3D,40,3C,20,
18445038725667826664,00000286,false,Rx,0,8,00,00,00,3D,00,00,0A,00,
18445038725667827304,00000289,false,Rx,0,8,27,10,4E,20,00,06,11,10,
18445038725667829864,00000288,false,Rx,0,8,27,10,4E,20,00,06,01,10,
18445038725667830547,0000028B,false,Rx,0,8,27,10,4E,20,00,06,01,10,
18445038725667830803,0000029B,false,Rx,0,8,43,3D,43,3D,3B,0A,14,3E,
18445038725667831102,00000734,false,Rx,0,8,03,E8,03,E8,64,64,3D,3D,
18445038725667831358,00000373,false,Rx,0,8,BA,B9,7F,BC,0C,5C,80,16,
18445038725667831656,00000287,false,Rx,0,8,27,10,27,10,27,10,00,00,
18445038725667833448,00000185,false,Rx,0,8,08,00,19,00,00,00,00,00,
18445038725667834173,00000285,false,Rx,0,8,00,00,02,19,76,00,08,10,
18445038725667834685,00000362,false,Rx,0,8,02,01,00,00,00,00,00,00,
18445038725667836648,00000370,false,Rx,0,8,05,BE,00,00,00,00,00,00,
18445038725667837288,00000289,false,Rx,0,8,27,10,4E,20,00,06,11,10,
18445038725667837587,00000299,false,Rx,0,8,39,3B,40,42,3B,00,00,00,
18445038725667837843,00000732,false,Rx,0,8,03,E8,03,E8,64,64,0D,3E,
18445038725667839891,00000288,false,Rx,0,8,27,10,4E,20,00,06,01,10,
18445038725667840189,00000298,false,Rx,0,8,3C,3C,43,3D,3B,00,00,3E,
18445038725667840445,0000075A,false,Rx,0,8,03,E8,03,E8,64,64,3C,3C,
18445038725667840701,0000028B,false,Rx,0,8,27,10,4E,20,00,06,01,10,
18445038725667840957,0000056A,false,Rx,0,8,02,8A,0A,80,A8,A0,AA,8A,
18445038725667841213,00000669,false,Rx,0,8,01,30,30,30,00,00,00,00,
18445038725667841427,00000373,false,Rx,0,8,BA,B9,7F,BC,0C,5C,80,16,
18445038725667841683,00000424,false,Rx,0,8,04,75,04,1F,86,A9,02,00,
18445038725667841939,00000287,false,Rx,0,8,27,10,27,10,27,10,00,00,
18445038725667844157,00000285,false,Rx,0,8,00,00,02,19,76,00,08,10,
18445038725667844712,00000362,false,Rx,0,8,02,01,00,00,00,00,00,00,
18445038725667844968,00000377,false,Rx,0,8,04,AB,00,05,3D,40,3C,20,
18445038725667847229,00000289,false,Rx,0,8,27,10,4E,20,00,06,11,10,
18445038725667847485,00000566,false,Rx,0,8,02,8A,0A,80,A8,A0,AA,8A,
18445038725667849875,00000288,false,Rx,0,8,27,10,4E,20,00,06,01,10,
18445038725667850131,00000564,false,Rx,0,8,02,8A,AA,8A,A8,A0,AA,8A,
18445038725667850557,0000028B,false,Rx,0,8,27,10,4E,20,00,06,01,10,
18445038725667850856,0000056B,false,Rx,0,8,AA,02,00,00,80,AA,01,00,
18445038725667851112,00000734,false,Rx,0,8,03,E8,03,E8,64,64,3D,3D,
18445038725667851368,00000373,false,Rx,0,8,BA,B9,7F,BC,0C,5C,80,16,
18445038725667851581,000006FA,false,Rx,0,8,02,36,34,34,00,00,00,00,
18445038725667851837,00000287,false,Rx,0,8,27,10,27,10,27,10,00,00,
18445038725667854141,00000285,false,Rx,0,8,00,00,02,19,76,00,08,10,
18445038725667854653,00000362,false,Rx,0,8,02,01,00,00,00,00,00,00,
18445038725667856616,00000370,false,Rx,0,8,05,BE,00,00,00,00,00,00,
18445038725667857256,00000289,false,Rx,0,8,27,10,4E,20,00,06,11,10,
18445038725667857512,00000567,false,Rx,0,8,AA,02,00,00,80,AA,00,00,
18445038725667857768,00000732,false,Rx,0,8,03,E8,03,E8,64,64,0D,3E,
18445038725667859901,00000288,false,Rx,0,8,27,10,4E,20,00,06,01,10,
18445038725667860157,00000565,false,Rx,0,8,AA,02,00,00,80,AA,00,00,
18445038725667860370,0000075A,false,Rx,0,8,03,E8,03,E8,64,64,3C,3C,
18445038725667860626,0000028B,false,Rx,0,8,27,10,4E,20,00,06,01,10,
18445038725667860925,0000056F,false,Rx,0,8,2A,88,2A,08,00,00,28,0A,
18445038725667861224,0000066A,false,Rx,0,8,02,1E,2F,B2,12,00,00,00,
18445038725667861437,00000373,false,Rx,0,8,BA,B9,7F,BC,0C,5C,80,16,
18445038725667861693,00000287,false,Rx,0,8,27,10,27,10,27,10,00,00,
18445038725667864125,00000285,false,Rx,0,8,00,00,02,19,76,00,08,10,
18445038725667864466,00000362,false,Rx,0,8,02,01,00,00,00,00,00,00,
18445038725667864978,00000377,false,Rx,0,8,04,AB,00,05,3D,40,3C,20,
18445038725667867282,00000289,false,Rx,0,8,27,10,4E,20,00,06,11,10,
18445038725667867538,0000056D,false,Rx,0,8,2A,00,00,00,00,00,28,0A,
18445038725667869800,00000288,false,Rx,0,8,27,10,4E,20,00,06,01,10,
18445038725667870098,0000056C,false,Rx,0,8,2A,88,02,00,00,00,28,0A,
18445038725667870525,0000028B,false,Rx,0,8,27,10,4E,20,00,06,01,10,
18445038725667870781,00000734,false,Rx,0,8,03,E8,03,E8,64,64,3D,3D,
18445038725667871037,00000735,false,Rx,0,8,43,00,43,00,25,AB,A0,3D,
18445038725667871293,00000373,false,Rx,0,8,BA,B9,7F,BC,0C,5C,80,16,
18445038725667871592,00000287,false,Rx,0,8,27,10,27,10,27,10,00,00,
18445038725667873810,000005A1,false,Rx,0,8,2A,A2,AA,2A,A2,8A,82,A2,
18445038725667874109,00000285,false,Rx,0,8,00,00,02,19,76,00,08,10,
18445038725667874664,00000362,false,Rx,0,8,02,01,00,00,00,00,00,00,
18445038725667876583,00000370,false,Rx,0,8,05,BE,00,00,00,00,00,00,
18445038725667877266,00000289,false,Rx,0,8,27,10,4E,20,00,06,11,10,
18445038725667877522,00000732,false,Rx,0,8,03,E8,03,E8,64,64,0D,3E,
18445038725667877778,00000733,false,Rx,0,8,39,3A,39,3A,25,AB,A0,3B,
18445038725667878034,00000388,false,Rx,0,8,02,02,00,00,00,00,00,02,
18445038725667879869,00000288,false,Rx,0,8,27,10,4E,20,00,06,01,10,
18445038725667880125,0000075A,false,Rx,0,8,03,E8,03,E8,64,64,3C,3C,
18445038725667880381,0000075B,false,Rx,0,8,3C,00,3C,00,25,AB,A0,3C,
18445038725667880637,0000028B,false,Rx,0,8,27,10,4E,20,00,06,01,10,
18445038725667880850,00000424,false,Rx,0,8,04,75,04,1F,86,A9,02,00,
18445038725667881319,00000373,false,Rx,0,8,BA,B9,7F,BC,0C,5C,80,16,
18445038725667881575,00000287,false,Rx,0,8,27,10,27,10,27,10,00,00,
18445038725667884093,00000285,false,Rx,0,8,00,00,02,19,76,00,08,10,
18445038725667884690,00000362,false,Rx,0,8,02,01,00,00,00,00,00,00,
18445038725667884989,00000377,false,Rx,0,8,04,AB,00,05,3D,40,3C,20,
18445038725667887293,00000289,false,Rx,0,8,27,10,4E,20,00,06,11,10,
18445038725667887591,0000029A,false,Rx,0,8,02,36,34,34,FF,FF,FF,FF,
18445038725667887890,00000676,false,Rx,0,8,00,00,00,00,00,00,00,00,
18445038725667889853,00000288,false,Rx,0,8,27,10,4E,20,00,06,01,10,
18445038725667890535,0000028B,false,Rx,0,8,27,10,4E,20,00,06,01,10,
18445038725667890791,0000056A,false,Rx,0,8,02,8A,0A,80,A8,A0,AA,8A,
18445038725667891047,00000734,false,Rx,0,8,03,E8,03,E8,64,64,3D,3D,
18445038725667891303,00000373,false,Rx,0,8,BA,B9,7F,BC,0C,5C,80,16,
18445038725667891559,00000287,false,Rx,0,8,27,10,27,10,27,10,00,00,
18445038725667894077,00000285,false,Rx,0,8,00,00,02,19,76,00,08,10,
18445038725667894631,00000362,false,Rx,0,8,02,01,00,00,00,00,00,00,
18445038725667895015,0000038A,false,Rx,0,8,3F,3C,00,00,04,00,00,00,
18445038725667896551,00000370,false,Rx,0,8,05,BE,00,00,00,00,00,00,
18445038725667897277,00000289,false,Rx,0,8,27,10,4E,20,00,06,11,10,
18445038725667897575,00000566,false,Rx,0,8,02,8A,0A,80,A8,A0,AA,8A,
18445038725667897831,00000732,false,Rx,0,8,03,E8,03,E8,64,64,0D,3E,
18445038725667898087,00000677,false,Rx,0,8,00,00,00,00,00,00,00,00,
18445038725667899879,00000288,false,Rx,0,8,27,10,4E,20,00,06,01,10,
18445038725667900135,00000564,false,Rx,0,8,02,8A,AA,8A,A8,A0,AA,8A,
18445038725667900434,0000075A,false,Rx,0,8,03,E8,03,E8,64,64,3C,3C,
18445038725667900647,0000028B,false,Rx,0,8,27,10,4E,20,00,06,01,10,
18445038725667900946,0000056B,false,Rx,0,8,AA,02,00,00,80,AA,01,00,
18445038725667901287,00000373,false,Rx,0,8,BA,B9,7F,BC,0C,5C,80,16,
18445038725667901543,00000287,false,Rx,0,8,27,10,27,10,27,10,00,00,
18445038725667904060,00000285,false,Rx,0,8,00,00,02,19,76,00,08,10,
18445038725667904572,00000362,false,Rx,0,8,02,01,00,00,00,00,00,00,
18445038725667904999,00000377,false,Rx,0,8,04,AB,00,05,3D,40,3C,20,
18445038725667906322,00000374,false,Rx,0,8,79,7C,7D,FE,3F,3E,3A,30,
18445038725667907218,00000289,false,Rx,0,8,27,10,4E,20,00,06,11,10,
18445038725667907516,00000567,false,Rx,0,8,AA,02,00,00,80,AA,00,00,
18445038725667907858,00000571,false,Rx,0,8,00,00,00,00,00,00,00,00,
18445038725667909863,00000288,false,Rx,0,8,27,10,4E,20,00,06,01,10,
18445038725667910119,00000565,false,Rx,0,8,AA,02,00,00,80,AA,00,00,
18445038725667910546,0000028B,false,Rx,0,8,27,10,4E,20,00,06,01,10,
18445038725667910802,0000056F,false,Rx,0,8,2A,88,2A,08,00,00,28,0A,
18445038725667911058,00000734,false,Rx,0,8,03,E8,03,E8,64,64,3D,3D,
18445038725667911314,00000373,false,Rx,0,8,BA,B9,7F,BC,0C,5C,80,16,
18445038725667911527,00000287,false,Rx,0,8,27,10,27,10,27,10,00,00,
18445038725667914044,00000285,false,Rx,0,8,00,00,02,19,76,00,08,10,
18445038725667914642,00000362,false,Rx,0,8,02,01,00,00,00,00,00,00,
18445038725667914983,00000389,false,Rx,0,8,02,00,00,3C,3C,00,00,00,
18445038725667916306,00000375,false,Rx,0,8,0F,0F,00,17,98,00,00,00,
18445038725667916562,00000370,false,Rx,0,8,05,BE,00,00,00,00,00,00,
18445038725667917244,00000289,false,Rx,0,8,27,10,4E,20,00,06,11,10,
18445038725667917500,0000056D,false,Rx,0,8,2A,00,00,00,00,00,28,0A,
18445038725667917756,00000732,false,Rx,0,8,03,E8,03,E8,64,64,0D,3E,
18445038725667919036,00000371,false,Rx,0,8,0A,00,00,00,00,00,00,00,
18445038725667919932,00000288,false,Rx,0,8,27,10,4E,20,00,06,01,10,
18445038725667920188,0000056C,false,Rx,0,8,2A,88,02,00,00,00,28,0A,
18445038725667920444,0000075A,false,Rx,0,8,03,E8,03,E8,64,64,3C,3C,
18445038725667920700,0000028B,false,Rx,0,8,27,10,4E,20,00,06,01,10,
18445038725667920913,00000424,false,Rx,0,8,04,75,04,1F,86,A9,02,00,
18445038725667921297,00000373,false,Rx,0,8,BA,B9,7F,BC,0C,5C,80,16,
18445038725667921553,00000154,false,Rx,0,8,99,99,30,99,16,11,F8,5C,
18445038725667921767,00000287,false,Rx,0,8,27,10,27,10,27,10,00,00,
18445038725667923815,000005A1,false,Rx,0,8,2A,A2,AA,2A,A2,8A,82,A2,
18445038725667924071,00000285,false,Rx,0,8,00,00,02,19,76,00,08,10,
18445038725667924668,00000362,false,Rx,0,8,02,01,00,00,00,00,00,00,
18445038725667924967,00000377,false,Rx,0,8,04,AB,00,05,3D,40,3C,20,
18445038725667926503,00000286,false,Rx,0,8,00,00,00,3D,00,00,0A,00,
18445038725667927356,00000289,false,Rx,0,8,27,10,4E,20,00,06,11,10,
18445038725667929873,00000288,false,Rx,0,8,27,10,4E,20,00,06,01,10,
18445038725667930556,0000028B,false,Rx,0,8,27,10,4E,20,00,06,01,10,
18445038725667930769,0000029B,false,Rx,0,8,43,3D,43,3D,3B,0A,14,3E,
18445038725667931068,00000734,false,Rx,0,8,03,E8,03,E8,64,64,3D,3D,
18445038725667931324,00000373,false,Rx,0,8,BA,B9,7F,BC,0C,5C,80,16,
18445038725667931537,00000287,false,Rx,0,8,27,10,27,10,27,10,00,00,
18445038725667933329,00000185,false,Rx,0,8,08,00,19,00,00,00,00,00,
18445038725667934012,00000285,false,Rx,0,8,00,00,02,19,76,00,08,10,
18445038725667934652,00000362,false,Rx,0,8,02,01,00,00,00,00,00,00,
18445038725667934993,00000569,false,Rx,0,8,AA,80,82,02,00,00,00,00,
18445038725667936487,00000370,false,Rx,0,8,05,BE,00,00,00,00,00,00,
18445038725667937255,00000289,false,Rx,0,8,27,10,4E,20,00,06,11,10,
18445038725667937511,00000299,false,Rx,0,8,39,3B,40,42,3B,00,00,00,
18445038725667937809,00000732,false,Rx,0,8,03,E8,03,E8,64,64,0D,3E,
18445038725667939943,00000288,false,Rx,0,8,27,10,4E,20,00,06,01,10,
18445038725667940241,00000298,false,Rx,0,8,3C,3C,43,3D,3B,00,00,3E,
18445038725667940540,0000028B,false,Rx,0,8,27,10,4E,20,00,06,01,10,
18445038725667940753,0000075A,false,Rx,0,8,03,E8,03,E8,64,64,3C,3C,
18445038725667941009,0000056A,false,Rx,0,8,02,8A,0A,80,A8,A0,AA,8A,
18445038725667941308,00000373,false,Rx,0,8,BA,B9,7F,BC,0C,5C,80,16,
18445038725667941521,00000287,false,Rx,0,8,27,10,27,10,27,10,00,00,
18445038725667943996,00000285,false,Rx,0,8,00,00,02,19,76,00,08,10,
18445038725667944465,00000362,false,Rx,0,8,02,01,00,00,00,00,00,00,
18445038725667944977,00000377,false,Rx,0,8,04,AB,00,05,3D,40,3C,20,
18445038725667947281,00000289,false,Rx,0,8,27,10,4E,20,00,06,11,10,
18445038725667947537,00000566,false,Rx,0,8,02,8A,0A,80,A8,A0,AA,8A,
18445038725667947836,00000667,false,Rx,0,8,00,39,34,31,30,41,30,38,
18445038725667949841,00000288,false,Rx,0,8,27,10,4E,20,00,06,01,10,
18445038725667950054,00000564,false,Rx,0,8,02,8A,AA,8A,A8,A0,AA,8A,
18445038725667950310,00000665,false,Rx,0,8,00,39,34,31,30,41,30,37,
18445038725667950566,0000028B,false,Rx,0,8,27,10,4E,20,00,06,01,10,
18445038725667950822,0000056B,false,Rx,0,8,AA,02,00,00,80,AA,01,00,
18445038725667951078,00000734,false,Rx,0,8,03,E8,03,E8,64,64,3D,3D,
18445038725667951334,00000373,false,Rx,0,8,BA,B9,7F,BC,0C,5C,80,16,
18445038725667951548,000006FA,false,Rx,0,8,00,4A,4D,41,58,44,47,47,
18445038725667951804,00000287,false,Rx,0,8,27,10,27,10,27,10,00,00,
18445038725667953980,00000285,false,Rx,0,8,00,00,02,19,76,00,08,10,
18445038725667954620,00000362,false,Rx,0,8,02,01,00,00,00,00,00,00,
18445038725667955004,00000568,false,Rx,0,8,00,02,80,0A,00,00,A8,AA,
18445038725667956454,00000370,false,Rx,0,8,05,BE,00,00,00,00,00,00,
18445038725667957308,00000289,false,Rx,0,8,27,10,4E,20,00,06,11,10,
18445038725667957564,00000567,false,Rx,0,8,AA,02,00,00,80,AA,00,00,
18445038725667957820,00000732,false,Rx,0,8,03,E8,03,E8,64,64,0D,3E,
18445038725667959868,00000288,false,Rx,0,8,27,10,4E,20,00,06,01,10,
18445038725667960124,00000565,false,Rx,0,8,AA,02,00,00,80,AA,00,00,
18445038725667960380,0000075A,false,Rx,0,8,03,E8,03,E8,64,64,3C,3C,
18445038725667960636,0000028B,false,Rx,0,8,27,10,4E,20,00,06,01,10,
18445038725667960892,0000056F,false,Rx,0,8,2A,88,2A,08,00,00,28,0A,
18445038725667961148,00000424,false,Rx,0,8,04,75,04,1F,86,A9,02,00,
18445038725667961361,00000373,false,Rx,0,8,BA,B9,7F,BC,0C,5C,80,16,
18445038725667961617,00000287,false,Rx,0,8,27,10,27,10,27,10,00,00,
18445038725667963963,00000285,false,Rx,0,8,00,00,02,19,76,00,08,10,
18445038725667964646,00000362,false,Rx,0,8,02,01,00,00,00,00,00,00,
18445038725667964987,00000377,false,Rx,0,8,04,AD,00,05,3D,40,3C,20,
18445038725667967249,00000289,false,Rx,0,8,27,10,4E,20,00,06,11,10,
18445038725667967505,0000056D,false,Rx,0,8,2A,00,00,00,00,00,28,0A,
18445038725667967761,00000668,false,Rx,0,8,02,9B,AD,4F,A2,00,00,00,
18445038725667969851,00000288,false,Rx,0,8,27,10,4E,20,00,06,01,10,
18445038725667970107,0000056C,false,Rx,0,8,2A,88,02,00,00,00,28,0A,
18445038725667970363,00000666,false,Rx,0,8,02,1C,A1,22,38,00,00,00,
18445038725667970577,0000028B,false,Rx,0,8,27,10,4E,20,00,06,01,10,
18445038725667970833,00000734,false,Rx,0,8,03,E8,03,E8,64,64,3D,3D,
18445038725667971131,00000735,false,Rx,0,8,43,00,43,00,25,AB,A0,3D,
18445038725667971345,00000373,false,Rx,0,8,BA,B9,7F,BC,0C,5C,80,16,
18445038725667971558,00000287,false,Rx,0,8,27,10,27,10,27,10,00,00,
18445038725667973819,000005A1,false,Rx,0,8,2A,A2,AA,2A,A2,8A,82,A2,
18445038725667974033,00000285,false,Rx,0,8,00,00,02,19,76,00,08,10,
18445038725667974630,00000362,false,Rx,0,8,02,01,00,00,00,00,00,00,
18445038725667975014,00000563,false,Rx,0,8,00,20,80,A2,02,00,00,00,
18445038725667976422,00000370,false,Rx,0,8,05,BE,00,00,00,00,00,00,
18445038725667977275,00000289,false,Rx,0,8,27,10,4E,20,00,06,11,10,
18445038725667977574,00000732,false,Rx,0,8,03,E8,03,E8,64,64,0D,3E,
18445038725667977873,00000388,false,Rx,0,8,02,02,00,00,00,00,00,02,
18445038725667978086,00000733,false,Rx,0,8,39,3A,39,3A,25,AB,A0,3B,
18445038725667979878,00000288,false,Rx,0,8,27,10,4E,20,00,06,01,10,
18445038725667980134,0000075A,false,Rx,0,8,03,E8,03,E8,64,64,3C,3C,
18445038725667980433,0000075B,false,Rx,0,8,3C,00,3C,00,25,AB,A0,3C,
18445038725667980646,0000028B,false,Rx,0,8,27,10,4E,20,00,06,01,10,
18445038725667981286,00000373,false,Rx,0,8,BA,B9,7F,BC,0C,5C,80,16,
18445038725667981542,00000287,false,Rx,0,8,27,10,27,10,27,10,00,00,
18445038725667983931,00000285,false,Rx,0,8,00,00,02,19,76,00,08,10,
18445038725667984571,00000362,false,Rx,0,8,02,01,00,00,00,00,00,00,
18445038725667984998,00000377,false,Rx,0,8,04,AB,00,05,3D,40,3C,20,
18445038725667987259,00000289,false,Rx,0,8,27,10,4E,20,00,06,11,10,
18445038725667987515,0000029A,false,Rx,0,8,00,4A,4D,41,58,44,47,47,
18445038725667989862,00000288,false,Rx,0,8,27,10,4E,20,00,06,01,10,
18445038725667990544,0000028B,false,Rx,0,8,27,10,4E,20,00,06,01,10,
18445038725667990843,0000056A,false,Rx,0,8,02,8A,0A,80,A8,A0,AA,8A,
18445038725667991142,00000734,false,Rx,0,8,03,E8,03,E8,64,64,3D,3D,
18445038725667991355,00000373,false,Rx,0,8,BA,B9,7F,BC,0C,5C,80,16,
18445038725667991611,00000287,false,Rx,0,8,27,10,27,10,27,10,00,00,
18445038725667993915,00000285,false,Rx,0,8,00,00,02,19,76,00,08,10,
18445038725667994598,00000362,false,Rx,0,8,02,01,00,00,00,00,00,00,
18445038725667994982,0000038A,false,Rx,0,8,3F,3C,00,00,04,00,00,00,
18445038725667996390,00000370,false,Rx,0,8,05,BE,00,00,00,00,00,00,
18445038725667997243,00000289,false,Rx,0,8,27,10,4E,20,00,06,11,10,
18445038725667997499,00000566,false,Rx,0,8,02,8A,0A,80,A8,A0,AA,8A,
18445038725667997755,00000732,false,Rx,0,8,03,E8,03,E8,64,64,0D,3E,
18445038725667999888,00000288,false,Rx,0,8,27,10,4E,20,00,06,01,10,
18445038725668000187,00000564,false,Rx,0,8,02,8A,AA,8A,A8,A0,AA,8A,
18445038725668000443,0000075A,false,Rx,0,8,03,E8,03,E8,64,64,3C,3C,
18445038725668000699,0000028B,false,Rx,0,8,27,10,4E,20,00,06,01,10,
18445038725668000912,00000424,false,Rx,0,8,04,75,04,1F,86,A9,02,00,
18445038725668001168,0000056B,false,Rx,0,8,AA,02,00,00,80,AA,01,00,
18445038725668001382,00000287,false,Rx,0,8,27,10,27,10,27,10,00,00,
18445038725668001638,00000373,false,Rx,0,8,BA,B9,7F,BC,0C,5C,80,16,
18445038725668003899,00000285,false,Rx,0,8,00,00,02,19,76,00,08,10,
18445038725668004667,00000362,false,Rx,0,8,02,01,00,00,00,00,00,00,
18445038725668004965,00000377,false,Rx,0,8,04,AB,00,05,3D,40,3C,20,
18445038725668006331,00000374,false,Rx,0,8,79,7C,7D,FE,3F,3E,3A,30,
18445038725668007269,00000289,false,Rx,0,8,27,10,4E,20,00,06,11,10,
18445038725668007525,00000567,false,Rx,0,8,AA,02,00,00,80,AA,00,00,
18445038725668009872,00000288,false,Rx,0,8,27,10,4E,20,00,06,01,10,
18445038725668010128,00000565,false,Rx,0,8,AA,02,00,00,80,AA,00,00,
18445038725668010555,0000028B,false,Rx,0,8,27,10,4E,20,00,06,01,10,
18445038725668010896,0000056F,false,Rx,0,8,2A,88,2A,08,00,00,28,0A,
18445038725668011152,00000734,false,Rx,0,8,03,E8,03,E8,64,64,3D,3D,
18445038725668011365,00000287,false,Rx,0,8,27,10,27,10,27,10,00,00,
18445038725668011621,00000373,false,Rx,0,8,BA,B9,7F,BC,0C,5C,80,16,
18445038725668013883,00000285,false,Rx,0,8,00,00,02,19,76,00,08,10,
18445038725668014608,00000362,false,Rx,0,8,02,01,00,00,00,00,00,00,
18445038725668014992,00000389,false,Rx,0,8,02,00,00,3C,3C,00,00,00,
18445038725668016315,00000375,false,Rx,0,8,0F,0F,00,17,98,00,00,00,
18445038725668016571,00000370,false,Rx,0,8,05,BE,00,00,00,00,00,00,
18445038725668017253,00000289,false,Rx,0,8,27,10,4E,20,00,06,11,10,
18445038725668017552,0000056D,false,Rx,0,8,2A,00,00,00,00,00,28,0A,
18445038725668017808,00000732,false,Rx,0,8,03,E8,03,E8,64,64,0D,3E,
18445038725668018875,00000371,false,Rx,0,8,0A,00,00,00,00,00,00,00,
18445038725668019941,00000288,false,Rx,0,8,27,10,4E,20,00,06,01,10,
18445038725668020197,0000056C,false,Rx,0,8,2A,88,02,00,00,00,28,0A,
18445038725668020539,0000028B,false,Rx,0,8,27,10,4E,20,00,06,01,10,
18445038725668020752,00000154,false,Rx,0,8,99,99,30,99,16,11,F8,5C,
18445038725668021008,0000075A,false,Rx,0,8,03,E8,03,E8,64,64,3C,3C,
18445038725668021307,00000373,false,Rx,0,8,BA,B9,7F,BC,0C,5C,80,16,
18445038725668021520,00000287,false,Rx,0,8,27,10,27,10,27,10,00,00,
18445038725668023781,000005A1,false,Rx,0,8,2A,A2,AA,2A,A2,8A,82,A2,
18445038725668024037,00000285,false,Rx,0,8,00,00,02,19,76,00,08,10,
18445038725668024379,00000362,false,Rx,0,8,02,01,00,00,00,00,00,00,
18445038725668024976,00000377,false,Rx,0,8,04,AB,00,05,3D,40,3C,20,
18445038725668026298,0000066B,false,Rx,0,8,02,00,00,00,00,00,00,00,
18445038725668026554,00000286,false,Rx,0,8,00,00,00,3D,00,00,0A,00,
18445038725668026810,0000066C,false,Rx,0,8,02,9B,DE,18,73,00,00,00,
18445038725668027280,00000289,false,Rx,0,8,27,10,4E,20,00,06,11,10,
18445038725668029882,00000288,false,Rx,0,8,27,10,4E,20,00,06,01,10,
18445038725668030522,0000028B,false,Rx,0,8,27,10,4E,20,00,06,01,10,
18445038725668030778,0000029B,false,Rx,0,8,43,3D,43,3D,3B,0A,14,3E,
18445038725668031034,00000734,false,Rx,0,8,03,E8,03,E8,64,64,3D,3D,
18445038725668031290,00000373,false,Rx,0,8,BA,B9,7F,BC,0C,5C,80,16,
18445038725668031546,00000287,false,Rx,0,8,27,10,27,10,27,10,00,00,
18445038725668033125,00000185,false,Rx,0,8,08,00,19,00,00,00,00,00,
18445038725668033850,00000285,false,Rx,0,8,00,00,02,19,76,00,08,10,
18445038725668034618,00000362,false,Rx,0,8,02,01,00,00,00,00,00,00,
18445038725668036325,00000370,false,Rx,0,8,05,BE,00,00,00,00,00,00,
18445038725668037264,00000289,false,Rx,0,8,27,10,4E,20,00,06,11,10,
18445038725668037562,00000299,false,Rx,0,8,39,3B,40,42,3B,00,00,00,
18445038725668037818,00000732,false,Rx,0,8,03,E8,03,E8,64,64,0D,3E,
18445038725668039184,00000424,false,Rx,0,8,04,75,04,1F,86,A9,02,00,
18445038725668039909,00000288,false,Rx,0,8,27,10,4E,20,00,06,01,10,
18445038725668040165,00000298,false,Rx,0,8,3C,3C,43,3D,3B,00,00,3E,
18445038725668040421,0000075A,false,Rx,0,8,03,E8,03,E8,64,64,3C,3C,
18445038725668040634,0000028B,false,Rx,0,8,27,10,4E,20,00,06,01,10,
18445038725668040890,0000056A,false,Rx,0,8,02,8A,0A,80,A8,A0,AA,8A,
18445038725668041317,00000373,false,Rx,0,8,BA,B9,7F,BC,0C,5C,80,16,
18445038725668041530,00000287,false,Rx,0,8,27,10,27,10,27,10,00,00,
18445038725668043834,00000285,false,Rx,0,8,00,00,02,19,76,00,08,10,
18445038725668044645,00000362,false,Rx,0,8,02,01,00,00,00,00,00,00,
18445038725668044986,00000377,false,Rx,0,8,04,AB,00,05,3D,40,3C,20,
18445038725668047247,00000289,false,Rx,0,8,27,10,4E,20,00,06,11,10,
18445038725668047461,00000566,false,Rx,0,8,02,8A,0A,80,A8,A0,AA,8A,
18445038725668049850,00000288,false,Rx,0,8,27,10,4E,20,00,06,01,10,
18445038725668050106,00000564,false,Rx,0,8,02,8A,AA,8A,A8,A0,AA,8A,
18445038725668050533,0000028B,false,Rx,0,8,27,10,4E,20,00,06,01,10,
18445038725668050789,0000056B,false,Rx,0,8,AA,02,00,00,80,AA,01,00,
18445038725668051045,00000734,false,Rx,0,8,03,E8,03,E8,64,64,3D,3D,
18445038725668051301,00000287,false,Rx,0,8,27,10,27,10,27,10,00,00,
18445038725668051514,00000373,false,Rx,0,8,BA,B9,7F,BC,0C,5C,80,16,
18445038725668051770,000006FA,false,Rx,0,8,01,32,57,45,5A,43,30,36,
18445038725668053818,00000285,false,Rx,0,8,00,00,02,19,76,00,08,10,
18445038725668054586,00000362,false,Rx,0,8,02,01,00,00,00,00,00,00,
18445038725668056293,00000370,false,Rx,0,8,05,BE,00,00,00,00,00,00,
18445038725668057274,00000289,false,Rx,0,8,27,10,4E,20,00,06,11,10,
18445038725668057615,00000567,false,Rx,0,8,AA,02,00,00,80,AA,00,00,
18445038725668057871,00000732,false,Rx,0,8,03,E8,03,E8,64,64,0D,3E,
18445038725668059877,00000288,false,Rx,0,8,27,10,4E,20,00,06,01,10,
18445038725668060133,00000565,false,Rx,0,8,AA,02,00,00,80,AA,00,00,
18445038725668060431,0000075A,false,Rx,0,8,03,E8,03,E8,64,64,3C,3C,
18445038725668060645,0000028B,false,Rx,0,8,27,10,4E,20,00,06,01,10,
18445038725668060901,0000056F,false,Rx,0,8,2A,88,2A,08,00,00,28,0A,
18445038725668061285,00000287,false,Rx,0,8,27,10,27,10,27,10,00,00,
18445038725668061498,00000373,false,Rx,0,8,BA,B9,7F,BC,0C,5C,80,16,
18445038725668063802,00000285,false,Rx,0,8,00,00,02,19,76,00,08,10,
18445038725668064527,00000362,false,Rx,0,8,02,01,00,00,00,00,00,00,
18445038725668064997,00000377,false,Rx,0,8,04,AD,00,05,3D,40,3C,20,
18445038725668067258,00000289,false,Rx,0,8,27,10,4E,20,00,06,11,10,
18445038725668067557,0000056D,false,Rx,0,8,2A,00,00,00,00,00,28,0A,
18445038725668069860,00000288,false,Rx,0,8,27,10,4E,20,00,06,01,10,
18445038725668070116,0000056C,false,Rx,0,8,2A,88,02,00,00,00,28,0A,
18445038725668070543,0000028B,false,Rx,0,8,27,10,4E,20,00,06,01,10,
18445038725668070799,00000734,false,Rx,0,8,03,E8,03,E8,64,64,3D,3D,
18445038725668071055,00000735,false,Rx,0,8,43,00,43,00,25,AB,A0,3D,
18445038725668071311,00000287,false,Rx,0,8,27,10,27,10,27,10,00,00,
18445038725668071524,00000373,false,Rx,0,8,BA,B9,7F,BC,0C,5C,80,16,
18445038725668073786,00000285,false,Rx,0,8,00,00,02,19,76,00,08,10,
18445038725668073999,000005A1,false,Rx,0,8,2A,A2,AA,2A,A2,8A,82,A2,
18445038725668074596,00000362,false,Rx,0,8,02,01,00,00,00,00,00,00,
18445038725668076260,00000370,false,Rx,0,8,05,BE,00,00,00,00,00,00,
18445038725668077242,00000289,false,Rx,0,8,27,10,4E,20,00,06,11,10,
18445038725668077498,00000732,false,Rx,0,8,03,E8,03,E8,64,64,0D,3E,
18445038725668077754,00000733,false,Rx,0,8,39,3A,39,3A,25,AB,A0,3B,
18445038725668078010,00000388,false,Rx,0,8,02,02,00,00,00,00,00,02,
18445038725668078948,00000424,false,Rx,0,8,04,75,04,1F,86,A9,02,00,
18445038725668079930,00000288,false,Rx,0,8,27,10,4E,20,00,06,01,10,
18445038725668080186,0000075A,false,Rx,0,8,03,E8,03,E8,64,64,3C,3C,
18445038725668080442,0000075B,false,Rx,0,8,3C,00,3C,00,25,AB,A0,3C,
18445038725668080698,0000028B,false,Rx,0,8,27,10,4E,20,00,06,01,10,
18445038725668081252,00000287,false,Rx,0,8,27,10,27,10,27,10,00,00,
18445038725668081466,00000373,false,Rx,0,8,BA,B9,7F,BC,0C,5C,80,16,
18445038725668083770,00000285,false,Rx,0,8,00,00,02,19,76,00,08,10,
18445038725668084623,00000362,false,Rx,0,8,02,01,00,00,00,00,00,00,
18445038725668084964,00000377,false,Rx,0,8,04,AB,00,05,3D,40,3C,20,
18445038725668087268,00000289,false,Rx,0,8,27,10,4E,20,00,06,11,10,
18445038725668087524,0000029A,false,Rx,0,8,01,32,57,45,5A,43,30,36,
18445038725668089871,00000288,false,Rx,0,8,27,10,4E,20,00,06,01,10,
18445038725668090511,0000028B,false,Rx,0,8,27,10,4E,20,00,06,01,10,
18445038725668090809,0000056A,false,Rx,0,8,02,8A,0A,80,A8,A0,AA,8A,
18445038725668091108,00000734,false,Rx,0,8,03,E8,03,E8,64,64,3D,3D,
18445038725668091321,00000287,false,Rx,0,8,27,10,27,10,27,10,00,00,
18445038725668091535,00000373,false,Rx,0,8,BA,B9,7F,BC,0C,5C,80,16,
18445038725668093753,00000285,false,Rx,0,8,00,00,02,19,76,00,08,10,
18445038725668094564,00000362,false,Rx,0,8,02,01,00,00,00,00,00,00,
18445038725668094991,0000038A,false,Rx,0,8,3F,3C,00,00,04,00,00,00,
18445038725668096228,00000370,false,Rx,0,8,05,BE,00,00,00,00,00,00,
18445038725668097295,00000289,false,Rx,0,8,27,10,4E,20,00,06,11,10,
18445038725668097551,00000566,false,Rx,0,8,02,8A,0A,80,A8,A0,AA,8A,
18445038725668097807,00000732,false,Rx,0,8,03,E8,03,E8,64,64,0D,3E,
18445038725668099940,00000288,false,Rx,0,8,27,10,4E,20,00,06,01,10,
18445038725668100196,00000564,false,Rx,0,8,02,8A,AA,8A,A8,A0,AA,8A,
18445038725668100537,0000028B,false,Rx,0,8,27,10,4E,20,00,06,01,10,
18445038725668100751,0000075A,false,Rx,0,8,03,E8,03,E8,64,64,3C,3C,
18445038725668101007,0000056B,false,Rx,0,8,AA,02,00,00,80,AA,01,00,
18445038725668101220,00000287,false,Rx,0,8,27,10,27,10,27,10,00,00,
18445038725668101476,00000373,false,Rx,0,8,BA,B9,7F,BC,0C,5C,80,16,
18445038725668103737,00000285,false,Rx,0,8,00,00,02,19,76,00,08,10,
18445038725668104420,00000362,false,Rx,0,8,02,01,00,00,00,00,00,00,
18445038725668104975,00000377,false,Rx,0,8,04,AB,00,05,3D,40,3C,20,
18445038725668106297,00000374,false,Rx,0,8,79,7C,7D,FE,3F,3E,3A,30,
18445038725668107236,00000289,false,Rx,0,8,27,10,4E,20,00,06,11,10,
18445038725668107492,00000567,false,Rx,0,8,AA,02,00,00,80,AA,00,00,
18445038725668109839,00000288,false,Rx,0,8,27,10,4E,20,00,06,01,10,
18445038725668110095,00000565,false,Rx,0,8,AA,02,00,00,80,AA,00,00,
18445038725668110521,0000028B,false,Rx,0,8,27,10,4E,20,00,06,01,10,
18445038725668110820,0000056F,false,Rx,0,8,2A,88,2A,08,00,00,28,0A,
18445038725668111118,00000734,false,Rx,0,8,03,E8,03,E8,64,64,3D,3D,
18445038725668111332,00000287,false,Rx,0,8,27,10,27,10,27,10,00,00,
18445038725668111588,00000373,false,Rx,0,8,BA,B9,7F,BC,0C,5C,80,16,
18445038725668113721,00000285,false,Rx,0,8,00,00,02,19,76,00,08,10,
18445038725668114574,00000362,false,Rx,0,8,02,01,00,00,00,00,00,00,
18445038725668115001,00000389,false,Rx,0,8,02,00,00,3C,3C,00,00,00,
18445038725668116196,00000370,false,Rx,0,8,05,BE,00,00,00,00,00,00,
18445038725668116452,00000375,false,Rx,0,8,0F,0F,00,17,98,00,00,00,
18445038725668117262,00000289,false,Rx,0,8,27,10,4E,20,00,06,11,10,
18445038725668117604,0000056D,false,Rx,0,8,2A,00,00,00,00,00,28,0A,
18445038725668117860,00000732,false,Rx,0,8,03,E8,03,E8,64,64,0D,3E,
18445038725668118713,00000371,false,Rx,0,8,0A,00,00,00,00,00,00,00,
18445038725668118969,00000424,false,Rx,0,8,04,75,04,1F,86,A9,02,00,
18445038725668119950,00000288,false,Rx,0,8,27,10,4E,20,00,06,01,10,
18445038725668120249,0000056C,false,Rx,0,8,2A,88,02,00,00,00,28,0A,
18445038725668120548,0000028B,false,Rx,0,8,27,10,4E,20,00,06,01,10,
18445038725668120761,00000154,false,Rx,0,8,98,99,30,99,16,11,F8,5C,
18445038725668120974,0000075A,false,Rx,0,8,03,E8,03,E8,64,64,3C,3C,
18445038725668121230,00000287,false,Rx,0,8,27,10,27,10,27,10,00,00,
18445038725668121444,00000373,false,Rx,0,8,BA,B9,7F,BC,0C,5C,80,16,
18445038725668123705,00000285,false,Rx,0,8,00,00,02,19,76,00,08,10,
18445038725668123918,000005A1,false,Rx,0,8,2A,A2,AA,2A,A2,8A,82,A2,
18445038725668124601,00000362,false,Rx,0,8,02,01,00,00,00,00,00,00,
18445038725668124985,00000377,false,Rx,0,8,04,AB,00,05,3D,40,3C,20,
18445038725668126180,00000286,false,Rx,0,8,00,00,00,3D,00,00,0A,00,
18445038725668127332,00000289,false,Rx,0,8,27,10,4E,20,00,06,11,10,
18445038725668129849,00000288,false,Rx,0,8,27,10,4E,20,00,06,01,10,
18445038725668130574,0000028B,false,Rx,0,8,27,10,4E,20,00,06,01,10,
18445038725668130830,0000029B,false,Rx,0,8,43,3D,43,3D,3B,0A,14,3E,
18445038725668131129,00000734,false,Rx,0,8,03,E8,03,E8,64,64,3D,3D,
18445038725668131342,00000287,false,Rx,0,8,27,10,27,10,27,10,00,00,
18445038725668131598,00000373,false,Rx,0,8,BA,B9,7F,BC,0C,5C,80,16,
18445038725668133177,00000185,false,Rx,0,8,08,00,19,00,00,00,00,00,
18445038725668133689,00000285,false,Rx,0,8,00,00,02,19,76,00,08,10,
18445038725668134585,00000362,false,Rx,0,8,02,01,00,00,00,00,00,00,
18445038725668135011,00000569,false,Rx,0,8,AA,80,82,02,00,00,00,00,
18445038725668135267,00000664,false,Rx,0,8,02,83,06,32,F3,00,00,00,
18445038725668136163,00000370,false,Rx,0,8,05,BE,00,00,00,00,00,00,
18445038725668137230,00000289,false,Rx,0,8,27,10,4E,20,00,06,11,10,
18445038725668137486,00000299,false,Rx,0,8,39,3B,40,42,3B,00,00,00,
18445038725668137742,00000732,false,Rx,0,8,03,E8,03,E8,64,64,0D,3E,
18445038725668139875,00000288,false,Rx,0,8,27,10,4E,20,00,06,01,10,
18445038725668140131,00000298,false,Rx,0,8,3C,3C,43,3D,3B,00,00,3E,
18445038725668140430,0000075A,false,Rx,0,8,03,E8,03,E8,64,64,3C,3C,
18445038725668140643,0000028B,false,Rx,0,8,27,10,4E,20,00,06,01,10,
18445038725668140899,0000056A,false,Rx,0,8,02,8A,0A,80,A8,A0,AA,8A,
18445038725668141155,00000287,false,Rx,0,8,27,10,27,10,27,10,00,00,
18445038725668141369,00000373,false,Rx,0,8,BA,B9,7F,BC,0C,5C,80,16,
18445038725668143673,00000285,false,Rx,0,8,00,00,02,19,76,00,08,10,
18445038725668144483,00000362,false,Rx,0,8,02,01,00,00,00,00,00,00,
18445038725668144995,00000377,false,Rx,0,8,04,AB,00,05,3D,40,3C,20,
18445038725668147257,00000289,false,Rx,0,8,27,10,4E,20,00,06,11,10,
18445038725668147513,00000566,false,Rx,0,8,02,8A,0A,80,A8,A0,AA,8A,
18445038725668149859,00000288,false,Rx,0,8,27,10,4E,20,00,06,01,10,
18445038725668150115,00000564,false,Rx,0,8,02,8A,AA,8A,A8,A0,AA,8A,
18445038725668150542,0000028B,false,Rx,0,8,27,10,4E,20,00,06,01,10,
18445038725668150798,0000056B,false,Rx,0,8,AA,02,00,00,80,AA,01,00,
18445038725668151011,000006FA,false,Rx,0,8,02,36,34,34,00,00,00,00,
18445038725668151267,00000734,false,Rx,0,8,03,E8,03,E8,64,64,3D,3D,
18445038725668151481,00000287,false,Rx,0,8,27,10,27,10,27,10,00,00,
18445038725668151737,00000373,false,Rx,0,8,BA,B9,7F,BC,0C,5C,80,16,
18445038725668153656,00000285,false,Rx,0,8,00,00,02,19,76,00,08,10,
18445038725668154552,00000362,false,Rx,0,8,02,01,00,00,00,00,00,00,
18445038725668155022,00000568,false,Rx,0,8,00,02,80,0A,00,00,A8,AA,
18445038725668155235,00000663,false,Rx,0,8,00,39,34,38,31,41,30,31,
18445038725668156131,00000370,false,Rx,0,8,05,BE,00,00,00,00,00,00,
18445038725668157283,00000289,false,Rx,0,8,27,10,4E,20,00,06,11,10,
18445038725668157539,00000567,false,Rx,0,8,AA,02,00,00,80,AA,00,00,
18445038725668157795,00000732,false,Rx,0,8,03,E8,03,E8,64,64,0D,3E,
18445038725668158819,00000424,false,Rx,0,8,04,75,04,1F,86,A9,02,00,
18445038725668159928,00000288,false,Rx,0,8,27,10,4E,20,00,06,01,10,
18445038725668160184,00000565,false,Rx,0,8,AA,02,00,00,80,AA,00,00,
18445038725668160440,0000075A,false,Rx,0,8,03,E8,03,E8,64,64,3C,3C,
18445038725668160696,0000028B,false,Rx,0,8,27,10,4E,20,00,06,01,10,
18445038725668160952,0000056F,false,Rx,0,8,2A,88,2A,08,00,00,28,0A,
18445038725668161166,00000287,false,Rx,0,8,27,10,27,10,27,10,00,00,
18445038725668161422,00000373,false,Rx,0,8,BA,B9,7F,BC,0C,5C,80,16,
18445038725668163640,00000285,false,Rx,0,8,00,00,02,19,76,00,08,10,
18445038725668164579,00000362,false,Rx,0,8,02,01,00,00,00,00,00,00,
18445038725668165006,00000377,false,Rx,0,8,04,AD,00,05,3D,40,3C,20,
18445038725668167267,00000289,false,Rx,0,8,27,10,4E,20,00,06,11,10,
18445038725668167566,0000056D,false,Rx,0,8,2A,00,00,00,00,00,28,0A,
18445038725668169870,00000288,false,Rx,0,8,27,10,4E,20,00,06,01,10,
18445038725668170126,0000056C,false,Rx,0,8,2A,88,02,00,00,00,28,0A,
18445038725668170510,0000028B,false,Rx,0,8,27,10,4E,20,00,06,01,10,
18445038725668170766,00000734,false,Rx,0,8,03,E8,03,E8,64,64,3D,3D,
18445038725668171022,00000735,false,Rx,0,8,43,00,43,00,25,AB,A0,3D,
18445038725668171278,00000287,false,Rx,0,8,27,10,27,10,27,10,00,00,
18445038725668171491,00000373,false,Rx,0,8,BA,B9,7F,BC,0C,5C,80,16,
18445038725668173624,00000285,false,Rx,0,8,00,00,02,19,76,00,08,10,
18445038725668173838,000005A1,false,Rx,0,8,2A,A2,AA,2A,A2,8A,82,A2,
18445038725668174563,00000362,false,Rx,0,8,02,01,00,00,00,00,00,00,
18445038725668174989,00000563,false,Rx,0,8,00,20,80,A2,02,00,00,00,
18445038725668176099,00000370,false,Rx,0,8,05,BE,00,00,00,00,00,00,
18445038725668177251,00000289,false,Rx,0,8,27,10,4E,20,00,06,11,10,
18445038725668177549,00000732,false,Rx,0,8,03,E8,03,E8,64,64,0D,3E,
18445038725668177848,00000733,false,Rx,0,8,39,3A,39,3A,25,AB,A0,3B,
18445038725668178061,00000388,false,Rx,0,8,02,02,00,00,00,00,00,02,
18445038725668179939,00000288,false,Rx,0,8,27,10,4E,20,00,06,01,10,
18445038725668180195,0000075A,false,Rx,0,8,03,E8,03,E8,64,64,3C,3C,
18445038725668180536,0000028B,false,Rx,0,8,27,10,4E,20,00,06,01,10,
18445038725668180792,0000075B,false,Rx,0,8,3C,00,3C,00,25,AB,A0,3C,
18445038725668181091,00000287,false,Rx,0,8,27,10,27,10,27,10,00,00,
18445038725668181304,00000373,false,Rx,0,8,BA,B9,7F,BC,0C,5C,80,16,
18445038725668183608,00000285,false,Rx,0,8,00,00,02,19,76,00,08,10,
18445038725668184419,00000362,false,Rx,0,8,02,01,00,00,00,00,00,00,
18445038725668184973,00000377,false,Rx,0,8,04,AB,00,05,3D,40,3C,20,
18445038725668187235,00000289,false,Rx,0,8,27,10,4E,20,00,06,11,10,
18445038725668187491,0000029A,false,Rx,0,8,02,36,34,34,FF,FF,FF,FF,
18445038725668189837,00000288,false,Rx,0,8,27,10,4E,20,00,06,01,10,
18445038725668190520,0000028B,false,Rx,0,8,27,10,4E,20,00,06,01,10,
18445038725668190776,0000056A,false,Rx,0,8,02,8A,0A,80,A8,A0,AA,8A,
18445038725668191032,00000734,false,Rx,0,8,03,E8,03,E8,64,64,3D,3D,
18445038725668191288,00000287,false,Rx,0,8,27,10,27,10,27,10,00,00,
18445038725668191501,00000373,false,Rx,0,8,BA,B9,7F,BC,0C,5C,80,16,
18445038725668193592,00000285,false,Rx,0,8,00,00,02,19,76,00,08,10,
18445038725668194531,00000362,false,Rx,0,8,02,01,00,00,00,00,00,00,
18445038725668195000,0000038A,false,Rx,0,8,3F,3C,00,00,04,00,00,00,
18445038725668196067,00000370,false,Rx,0,8,05,BE,00,00,00,00,00,00,
18445038725668197218,00000289,false,Rx,0,8,27,10,4E,20,00,06,11,10,
18445038725668197474,00000566,false,Rx,0,8,02,8A,0A,80,A8,A0,AA,8A,
18445038725668197730,00000732,false,Rx,0,8,03,E8,03,E8,64,64,0D,3E,
18445038725668198712,00000424,false,Rx,0,8,04,75,04,1F,86,A9,02,00,
18445038725668199949,00000288,false,Rx,0,8,27,10,4E,20,00,06,01,10,
18445038725668200248,00000564,false,Rx,0,8,02,8A,AA,8A,A8,A0,AA,8A,
18445038725668200546,0000028B,false,Rx,0,8,27,10,4E,20,00,06,01,10,
18445038725668200802,0000075A,false,Rx,0,8,03,E8,03,E8,64,64,3C,3C,
18445038725668201016,0000056B,false,Rx,0,8,AA,02,00,00,80,AA,01,00,
18445038725668201272,00000287,false,Rx,0,8,27,10,27,10,27,10,00,00,
18445038725668201485,00000373,false,Rx,0,8,BA,B9,7F,BC,0C,5C,80,16,
18445038725668203576,00000285,false,Rx,0,8,00,00,02,19,76,00,08,10,
18445038725668204600,00000362,false,Rx,0,8,02,01,00,00,00,00,00,00,
18445038725668204984,00000377,false,Rx,0,8,04,AB,00,05,3D,40,3C,20,
18445038725668206306,00000374,false,Rx,0,8,79,7C,7D,FE,3F,3E,3A,30,
18445038725668207288,00000289,false,Rx,0,8,27,10,4E,20,00,06,11,10,
18445038725668207544,00000567,false,Rx,0,8,AA,02,00,00,80,AA,00,00,
18445038725668209848,00000288,false,Rx,0,8,27,10,4E,20,00,06,01,10,
18445038725668210104,00000565,false,Rx,0,8,AA,02,00,00,80,AA,00,00,
18445038725668210530,0000028B,false,Rx,0,8,27,10,4E,20,00,06,01,10,
18445038725668210786,0000056F,false,Rx,0,8,2A,88,2A,08,00,00,28,0A,
18445038725668211042,00000287,false,Rx,0,8,27,10,27,10,27,10,00,00,
18445038725668211298,00000734,false,Rx,0,8,03,E8,03,E8,64,64,3D,3D,
18445038725668211512,00000373,false,Rx,0,8,BA,B9,7F,BC,0C,5C,80,16,
18445038725668213560,00000285,false,Rx,0,8,00,00,02,19,76,00,08,10,
18445038725668214541,00000362,false,Rx,0,8,02,01,00,00,00,00,00,00,
18445038725668215010,00000389,false,Rx,0,8,02,00,00,3C,3C,00,00,00,
18445038725668216034,00000370,false,Rx,0,8,05,BE,00,00,00,00,00,00,
18445038725668216290,00000375,false,Rx,0,8,0F,0F,00,17,98,00,00,00,
18445038725668217272,00000289,false,Rx,0,8,27,10,4E,20,00,06,11,10,
18445038725668217527,0000056D,false,Rx,0,8,2A,00,00,00,00,00,28,0A,
18445038725668217826,00000732,false,Rx,0,8,03,E8,03,E8,64,64,0D,3E,
18445038725668218551,00000371,false,Rx,0,8,0A,00,00,00,00,00,00,00,
18445038725668219874,00000288,false,Rx,0,8,27,10,4E,20,00,06,01,10,
18445038725668220130,0000056C,false,Rx,0,8,2A,88,02,00,00,00,28,0A,
18445038725668220386,00000154,false,Rx,0,8,99,99,30,99,16,11,F8,5C,
18445038725668220599,0000028B,false,Rx,0,8,27,10,4E,20,00,06,01,10,
18445038725668220813,0000075A,false,Rx,0,8,03,E8,03,E8,64,64,3C,3C,
18445038725668221069,00000287,false,Rx,0,8,27,10,27,10,27,10,00,00,
18445038725668221325,00000373,false,Rx,0,8,BA,B9,7F,BC,0C,5C,80,16,
18445038725668223543,00000285,false,Rx,0,8,00,00,02,19,76,00,08,10,
18445038725668223799,000005A1,false,Rx,0,8,2A,A2,AA,2A,A2,8A,82,A2,
18445038725668224482,00000362,false,Rx,0,8,02,01,00,00,00,00,00,00,
18445038725668224994,00000377,false,Rx,0,8,04,AB,00,05,3D,40,3C,20,
18445038725668226018,00000286,false,Rx,0,8,00,00,00,3D,00,00,0A,00,
18445038725668227298,00000289,false,Rx,0,8,27,10,4E,20,00,06,11,10,
18445038725668229943,00000288,false,Rx,0,8,27,10,4E,20,00,06,01,10,
18445038725668230541,0000028B,false,Rx,0,8,27,10,4E,20,00,06,01,10,
18445038725668230797,0000029B,false,Rx,0,8,43,3D,43,3D,3B,0A,14,3E,
18445038725668231010,00000287,false,Rx,0,8,27,10,27,10,27,10,00,00,
18445038725668231266,00000734,false,Rx,0,8,03,E8,03,E8,64,64,3D,3D,
18445038725668231479,00000373,false,Rx,0,8,BA,B9,7F,BC,0C,5C,80,16,
18445038725668232802,00000185,false,Rx,0,8,08,00,19,00,00,00,00,00,
18445038725668233527,00000285,false,Rx,0,8,00,00,02,19,76,00,08,10,
18445038725668234551,00000362,false,Rx,0,8,02,01,00,00,00,00,00,00,
18445038725668236002,00000370,false,Rx,0,8,05,BE,00,00,00,00,00,00,
18445038725668237282,00000289,false,Rx,0,8,27,10,4E,20,00,06,11,10,
18445038725668237538,00000299,false,Rx,0,8,39,3B,40,42,3B,00,00,00,
18445038725668237837,00000732,false,Rx,0,8,03,E8,03,E8,64,64,0D,3E,
18445038725668238647,00000424,false,Rx,0,8,04,75,04,1F,86,A9,02,00,
18445038725668239884,00000288,false,Rx,0,8,27,10,4E,20,00,06,01,10,
18445038725668240183,00000298,false,Rx,0,8,3C,3C,43,3D,3B,00,00,3E,
18445038725668240439,0000075A,false,Rx,0,8,03,E8,03,E8,64,64,3C,3C,
18445038725668240695,0000028B,false,Rx,0,8,27,10,4E,20,00,06,01,10,
18445038725668240908,0000056A,false,Rx,0,8,02,8A,0A,80,A8,A0,AA,8A,
18445038725668241164,00000287,false,Rx,0,8,27,10,27,10,27,10,00,00,
18445038725668241378,00000373,false,Rx,0,8,BA,B9,7F,BC,0C,5C,80,16,
18445038725668243511,00000285,false,Rx,0,8,00,00,02,19,76,00,08,10,
18445038725668244578,00000362,false,Rx,0,8,02,01,00,00,00,00,00,00,
18445038725668245004,00000377,false,Rx,0,8,04,AB,00,05,3D,40,3C,20,
18445038725668247223,00000289,false,Rx,0,8,27,10,4E,20,00,06,11,10,
18445038725668247479,00000566,false,Rx,0,8,02,8A,0A,80,A8,A0,AA,8A,
18445038725668249826,00000288,false,Rx,0,8,27,10,4E,20,00,06,01,10,
18445038725668250124,00000564,false,Rx,0,8,02,8A,AA,8A,A8,A0,AA,8A,
18445038725668250551,0000028B,false,Rx,0,8,27,10,4E,20,00,06,01,10,
18445038725668250807,0000056B,false,Rx,0,8,AA,02,00,00,80,AA,01,00,
18445038725668251063,000006FA,false,Rx,0,8,00,4A,4D,41,58,44,47,47,
18445038725668251276,00000734,false,Rx,0,8,03,E8,03,E8,64,64,3D,3D,
18445038725668251532,00000287,false,Rx,0,8,27,10,27,10,27,10,00,00,
18445038725668251746,00000373,false,Rx,0,8,BA,B9,7F,BC,0C,5C,80,16,
18445038725668253495,00000285,false,Rx,0,8,00,00,02,19,76,00,08,10,
18445038725668254519,00000362,false,Rx,0,8,02,01,00,00,00,00,00,00,
18445038725668255970,00000370,false,Rx,0,8,05,BE,00,00,00,00,00,00,
18445038725668257250,00000289,false,Rx,0,8,27,10,4E,20,00,06,11,10,
18445038725668257506,00000567,false,Rx,0,8,AA,02,00,00,80,AA,00,00,
18445038725668257762,00000732,false,Rx,0,8,03,E8,03,E8,64,64,0D,3E,
18445038725668259852,00000288,false,Rx,0,8,27,10,4E,20,00,06,01,10,
18445038725668260108,00000565,false,Rx,0,8,AA,02,00,00,80,AA,00,00,
18445038725668260364,0000075A,false,Rx,0,8,03,E8,03,E8,64,64,3C,3C,
18445038725668260577,0000028B,false,Rx,0,8,27,10,4E,20,00,06,01,10,
18445038725668260833,0000056F,false,Rx,0,8,2A,88,2A,08,00,00,28,0A,
18445038725668261089,00000287,false,Rx,0,8,27,10,27,10,27,10,00,00,
18445038725668261303,00000373,false,Rx,0,8,BA,B9,7F,BC,0C,5C,80,16,
18445038725668263479,00000285,false,Rx,0,8,00,00,02,19,76,00,08,10,
18445038725668264375,00000362,false,Rx,0,8,02,01,00,00,00,00,00,00,
18445038725668264972,00000377,false,Rx,0,8,04,AD,00,05,3D,40,3C,20,
18445038725668267276,00000289,false,Rx,0,8,27,10,4E,20,00,06,11,10,
18445038725668267532,0000056D,false,Rx,0,8,2A,00,00,00,00,00,28,0A,
18445038725668269793,00000288,false,Rx,0,8,27,10,4E,20,00,06,01,10,
18445038725668270049,0000056C,false,Rx,0,8,2A,88,02,00,00,00,28,0A,
18445038725668270561,0000028B,false,Rx,0,8,27,10,4E,20,00,06,01,10,
18445038725668270860,00000734,false,Rx,0,8,03,E8,03,E8,64,64,3D,3D,
18445038725668271073,00000287,false,Rx,0,8,27,10,27,10,27,10,00,00,
18445038725668271287,00000373,false,Rx,0,8,BA,B9,7F,BC,0C,5C,80,16,
18445038725668271543,00000735,false,Rx,0,8,43,00,43,00,25,AB,A0,3D,
18445038725668273463,00000285,false,Rx,0,8,00,00,02,19,76,00,08,10,
18445038725668273804,000005A1,false,Rx,0,8,2A,A2,AA,2A,A2,8A,82,A2,
18445038725668274529,00000362,false,Rx,0,8,02,01,00,00,00,00,00,00,
18445038725668275937,00000370,false,Rx,0,8,05,BE,00,00,00,00,00,00,
18445038725668277260,00000289,false,Rx,0,8,27,10,4E,20,00,06,11,10,
18445038725668277516,00000732,false,Rx,0,8,03,E8,03,E8,64,64,0D,3E,
18445038725668277772,00000733,false,Rx,0,8,39,3A,39,3A,25,AB,A0,3B,
18445038725668278028,00000388,false,Rx,0,8,02,02,00,00,00,00,00,02,
18445038725668278796,00000424,false,Rx,0,8,04,75,04,1F,86,A9,02,00,
18445038725668279863,00000288,false,Rx,0,8,27,10,4E,20,00,06,01,10,
18445038725668280119,0000075A,false,Rx,0,8,03,E8,03,E8,64,64,3C,3C,
18445038725668280375,0000075B,false,Rx,0,8,3C,00,3C,00,25,AB,A0,3C,
18445038725668280631,0000028B,false,Rx,0,8,27,10,4E,20,00,06,01,10,
18445038725668280929,00000287,false,Rx,0,8,27,10,27,10,27,10,00,00,
18445038725668281313,00000373,false,Rx,0,8,BA,B9,7F,BC,0C,5C,80,16,
18445038725668283446,00000285,false,Rx,0,8,00,00,02,19,76,00,08,10,
18445038725668284556,00000362,false,Rx,0,8,02,01,00,00,00,00,00,00,
18445038725668284982,00000377,false,Rx,0,8,04,AB,00,05,3D,40,3C,20,
18445038725668287244,00000289,false,Rx,0,8,27,10,4E,20,00,06,11,10,
18445038725668287542,0000029A,false,Rx,0,8,00,4A,4D,41,58,44,47,47,
18445038725668289804,00000288,false,Rx,0,8,27,10,4E,20,00,06,01,10,
18445038725668290572,0000028B,false,Rx,0,8,27,10,4E,20,00,06,01,10,
18445038725668290870,0000056A,false,Rx,0,8,02,8A,0A,80,A8,A0,AA,8A,
18445038725668291084,00000287,false,Rx,0,8,27,10,27,10,27,10,00,00,
18445038725668291340,00000373,false,Rx,0,8,BA,B9,7F,BC,0C,5C,80,16,
18445038725668291553,00000734,false,Rx,0,8,03,E8,03,E8,64,64,3D,3D,
18445038725668293430,00000285,false,Rx,0,8,00,00,02,19,76,00,08,10,
18445038725668294497,00000362,false,Rx,0,8,02,01,00,00,00,00,00,00,
18445038725668295009,0000038A,false,Rx,0,8,3F,3C,00,00,04,00,00,00,
18445038725668295905,00000370,false,Rx,0,8,05,BE,00,00,00,00,00,00,
18445038725668297270,00000289,false,Rx,0,8,27,10,4E,20,00,06,11,10,
18445038725668297526,00000566,false,Rx,0,8,02,8A,0A,80,A8,A0,AA,8A,
18445038725668297825,00000732,false,Rx,0,8,03,E8,03,E8,64,64,0D,3E,
18445038725668299830,00000288,false,Rx,0,8,27,10,4E,20,00,06,01,10,
18445038725668300129,00000564,false,Rx,0,8,02,8A,AA,8A,A8,A0,AA,8A,
18445038725668300385,0000075A,false,Rx,0,8,03,E8,03,E8,64,64,3C,3C,
18445038725668300641,0000028B,false,Rx,0,8,27,10,4E,20,00,06,01,10,
18445038725668300897,00000287,false,Rx,0,8,27,10,27,10,27,10,00,00,
18445038725668301153,0000056B,false,Rx,0,8,AA,02,00,00,80,AA,01,00,
18445038725668301366,00000373,false,Rx,0,8,BA,B9,7F,BC,0C,5C,80,16,
18445038725668303414,00000285,false,Rx,0,8,00,00,02,19,76,00,08,10,
18445038725668304438,00000362,false,Rx,0,8,02,01,00,00,00,00,00,00,
18445038725668304993,00000377,false,Rx,0,8,04,AB,00,05,3D,40,3C,20,
18445038725668306315,00000374,false,Rx,0,8,79,7C,7C,FE,3F,3E,3A,30,
18445038725668307211,00000289,false,Rx,0,8,27,10,4E,20,00,06,11,10,
18445038725668307467,00000567,false,Rx,0,8,AA,02,00,00,80,AA,00,00,
18445038725668309814,00000288,false,Rx,0,8,27,10,4E,20,00,06,01,10,
18445038725668310070,00000565,false,Rx,0,8,AA,02,00,00,80,AA,00,00,
18445038725668310539,0000028B,false,Rx,0,8,27,10,4E,20,00,06,01,10,
18445038725668310795,0000056F,false,Rx,0,8,2A,88,2A,08,00,00,28,0A,
18445038725668311009,00000287,false,Rx,0,8,27,10,27,10,27,10,00,00,
18445038725668311265,00000734,false,Rx,0,8,03,E8,03,E8,64,64,3D,3D,
18445038725668311478,00000373,false,Rx,0,8,BA,B9,7F,BC,0C,5C,80,16,
18445038725668313398,00000285,false,Rx,0,8,00,00,02,19,76,00,08,10,
18445038725668314507,00000362,false,Rx,0,8,02,01,00,00,00,00,00,00,
18445038725668315019,00000389,false,Rx,0,8,02,00,00,3C,3C,00,00,00,
18445038725668315873,00000370,false,Rx,0,8,05,BE,00,00,00,00,00,00,
18445038725668316299,00000375,false,Rx,0,8,0F,0F,00,17,98,00,00,00,
18445038725668317195,00000289,false,Rx,0,8,27,10,4E,20,00,06,11,10,
18445038725668317451,0000056D,false,Rx,0,8,2A,00,00,00,00,00,28,0A,
18445038725668317750,00000732,false,Rx,0,8,03,E8,03,E8,64,64,0D,3E,
18445038725668318390,00000371,false,Rx,0,8,0A,00,00,00,00,00,00,00,
18445038725668318646,00000424,false,Rx,0,8,04,75,04,1F,86,A9,02,00,
18445038725668319926,00000288,false,Rx,0,8,27,10,4E,20,00,06,01,10,
18445038725668320182,0000056C,false,Rx,0,8,2A,88,02,00,00,00,28,0A,
18445038725668320395,00000154,false,Rx,0,8,98,99,30,99,16,11,F8,5C,
18445038725668320651,0000028B,false,Rx,0,8,27,10,4E,20,00,06,01,10,
18445038725668320865,0000075A,false,Rx,0,8,03,E8,03,E8,64,64,3C,3C,
18445038725668321121,00000287,false,Rx,0,8,27,10,27,10,27,10,00,00,
18445038725668321334,00000373,false,Rx,0,8,BA,B9,7F,BC,0C,5C,80,16,
18445038725668323382,00000285,false,Rx,0,8,00,00,02,19,76,00,08,10,
18445038725668323809,000005A1,false,Rx,0,8,2A,A2,AA,2A,A2,8A,82,A2,
18445038725668324534,00000362,false,Rx,0,8,02,01,00,00,00,00,00,00,
18445038725668325003,00000377,false,Rx,0,8,04,AB,00,05,3D,40,3C,20,
18445038725668325856,00000286,false,Rx,0,8,00,00,00,3D,00,00,0A,00,
18445038725668327350,00000289,false,Rx,0,8,27,10,4E,20,00,06,11,10,
18445038725668329910,00000288,false,Rx,0,8,27,10,4E,20,00,06,01,10,
18445038725668330550,0000028B,false,Rx,0,8,27,10,4E,20,00,06,01,10,
18445038725668330763,0000029B,false,Rx,0,8,43,3D,43,3D,3B,0A,14,3E,
18445038725668331019,00000287,false,Rx,0,8,27,10,27,10,27,10,00,00,
18445038725668331232,00000734,false,Rx,0,8,03,E8,03,E8,64,64,3D,3D,
18445038725668331488,00000373,false,Rx,0,8,BA,B9,7F,BC,0C,5C,80,16,
18445038725668332726,00000185,false,Rx,0,8,08,00,19,00,00,00,00,00,
18445038725668333366,00000285,false,Rx,0,8,00,00,02,19,76,00,08,10,
18445038725668334518,00000362,false,Rx,0,8,02,01,00,00,00,00,00,00,
18445038725668334987,00000569,false,Rx,0,8,AA,80,82,02,00,00,00,00,
18445038725668335840,00000370,false,Rx,0,8,05,BE,00,00,00,00,00,00,
18445038725668337248,00000289,false,Rx,0,8,27,10,4E,20,00,06,11,10,
18445038725668337504,00000299,false,Rx,0,8,39,3B,40,42,3B,00,00,00,
18445038725668337760,00000732,false,Rx,0,8,03,E8,03,E8,64,64,0D,3E,
18445038725668339851,00000288,false,Rx,0,8,27,10,4E,20,00,06,01,10,
18445038725668340107,00000298,false,Rx,0,8,3C,3C,43,3D,3B,00,00,3E,
18445038725668340363,0000075A,false,Rx,0,8,03,E8,03,E8,64,64,3C,3C,
18445038725668340576,0000028B,false,Rx,0,8,27,10,4E,20,00,06,01,10,
18445038725668340832,00000287,false,Rx,0,8,27,10,27,10,27,10,00,00,
18445038725668341088,0000056A,false,Rx,0,8,02,8A,0A,80,A8,A0,AA,8A,
18445038725668341302,00000373,false,Rx,0,8,BA,B9,7F,BC,0C,5C,80,16,
18445038725668341558,00000669,false,Rx,0,8,02,00,00,00,00,00,00,00,
18445038725668343350,00000285,false,Rx,0,8,00,00,02,19,76,00,08,10,
18445038725668344331,00000362,false,Rx,0,8,02,01,00,00,00,00,00,00,
18445038725668344971,00000377,false,Rx,0,8,04,AB,00,05,3D,40,3C,20,
18445038725668347232,00000289,false,Rx,0,8,27,10,4E,20,00,06,11,10,
18445038725668347531,00000566,false,Rx,0,8,02,8A,0A,80,A8,A0,AA,8A,
18445038725668349792,00000288,false,Rx,0,8,27,10,4E,20,00,06,01,10,
18445038725668350048,00000564,false,Rx,0,8,02,8A,AA,8A,A8,A0,AA,8A,
18445038725668350517,0000028B,false,Rx,0,8,27,10,4E,20,00,06,01,10,
18445038725668350731,000006FA,false,Rx,0,8,01,32,57,45,5A,43,30,36,
18445038725668350987,0000056B,false,Rx,0,8,AA,02,00,00,80,AA,01,00,
18445038725668351243,00000287,false,Rx,0,8,27,10,27,10,27,10,00,00,
18445038725668351456,00000373,false,Rx,0,8,BA,B9,7F,BC,0C,5C,80,16,
18445038725668351669,00000734,false,Rx,0,8,03,E8,03,E8,64,64,3D,3D,
18445038725668353333,00000285,false,Rx,0,8,00,00,02,19,76,00,08,10,
18445038725668354485,00000362,false,Rx,0,8,02,01,00,00,00,00,00,00,
18445038725668354997,00000568,false,Rx,0,8,00,02,80,0A,00,00,A8,AA,
18445038725668355808,00000370,false,Rx,0,8,05,BE,00,00,00,00,00,00,
18445038725668357259,00000289,false,Rx,0,8,27,10,4E,20,00,06,11,10,
18445038725668357515,00000567,false,Rx,0,8,AA,02,00,00,80,AA,00,00,
18445038725668357813,00000732,false,Rx,0,8,03,E8,03,E8,64,64,0D,3E,
18445038725668358411,00000424,false,Rx,0,8,04,75,04,1F,86,A9,02,00,
18445038725668359861,00000288,false,Rx,0,8,27,10,4E,20,00,06,01,10,
18445038725668360117,00000565,false,Rx,0,8,AA,02,00,00,80,AA,00,00,
18445038725668360373,0000075A,false,Rx,0,8,03,E8,03,E8,64,64,3C,3C,
18445038725668360629,0000028B,false,Rx,0,8,27,10,4E,20,00,06,01,10,
18445038725668360843,00000287,false,Rx,0,8,27,10,27,10,27,10,00,00,
18445038725668361099,0000056F,false,Rx,0,8,2A,88,2A,08,00,00,28,0A,
18445038725668361312,00000373,false,Rx,0,8,BA,B9,7F,BC,0C,5C,80,16,
18445038725668361568,0000066A,false,Rx,0,8,02,1E,2F,B2,12,00,00,00,
18445038725668363317,00000285,false,Rx,0,8,00,00,02,19,76,00,08,10,
18445038725668364512,00000362,false,Rx,0,8,02,01,00,00,00,00,00,00,
18445038725668364981,00000377,false,Rx,0,8,04,AB,00,05,3D,40,3C,20,
18445038725668367200,00000289,false,Rx,0,8,27,10,4E,20,00,06,11,10,
18445038725668367456,0000056D,false,Rx,0,8,2A,00,00,00,00,00,28,0A,
18445038725668369802,00000288,false,Rx,0,8,27,10,4E,20,00,06,01,10,
18445038725668370058,0000056C,false,Rx,0,8,2A,88,02,00,00,00,28,0A,
18445038725668370528,0000028B,false,Rx,0,8,27,10,4E,20,00,06,01,10,
18445038725668370784,00000287,false,Rx,0,8,27,10,27,10,27,10,00,00,
18445038725668371040,00000734,false,Rx,0,8,03,E8,03,E8,64,64,3D,3D,
18445038725668371296,00000373,false,Rx,0,8,BA,B9,7F,BC,0C,5C,80,16,
18445038725668371509,00000735,false,Rx,0,8,43,00,43,00,25,AB,A0,3D,
18445038725668373301,00000285,false,Rx,0,8,00,00,02,19,76,00,08,10,
18445038725668373770,000005A1,false,Rx,0,8,2A,A2,AA,2A,A2,8A,82,A2,
18445038725668374496,00000362,false,Rx,0,8,02,01,00,00,00,00,00,00,
18445038725668375008,00000563,false,Rx,0,8,00,20,80,A2,02,00,00,00,
18445038725668375776,00000370,false,Rx,0,8,05,BE,00,00,00,00,00,00,
18445038725668377184,00000289,false,Rx,0,8,27,10,4E,20,00,06,11,10,
18445038725668377440,00000732,false,Rx,0,8,03,E8,03,E8,64,64,0D,3E,
18445038725668377696,00000733,false,Rx,0,8,39,3A,39,3A,25,AB,A0,3B,
18445038725668377952,00000388,false,Rx,0,8,02,02,00,00,00,00,00,02,
18445038725668379829,00000288,false,Rx,0,8,27,10,4E,20,00,06,01,10,
18445038725668380128,0000075A,false,Rx,0,8,03,E8,03,E8,64,64,3C,3C,
18445038725668380384,0000075B,false,Rx,0,8,3C,00,3C,00,25,AB,A0,3C,
18445038725668380640,0000028B,false,Rx,0,8,27,10,4E,20,00,06,01,10,
18445038725668380896,00000287,false,Rx,0,8,27,10,27,10,27,10,00,00,
18445038725668381280,00000373,false,Rx,0,8,BA,B9,7F,BC,0C,5C,80,16,
18445038725668383285,00000285,false,Rx,0,8,00,00,02,19,76,00,08,10,
18445038725668384437,00000362,false,Rx,0,8,02,01,00,00,00,00,00,00,
18445038725668384992,00000377,false,Rx,0,8,04,AB,00,05,3D,40,3C,20,
18445038725668387210,00000289,false,Rx,0,8,27,10,4E,20,00,06,11,10,
18445038725668387466,0000029A,false,Rx,0,8,01,32,57,45,5A,43,30,36,
18445038725668387893,00000676,false,Rx,0,8,00,00,00,00,00,00,00,00,
18445038725668389813,00000288,false,Rx,0,8,27,10,4E,20,00,06,01,10,
18445038725668390538,0000028B,false,Rx,0,8,27,10,4E,20,00,06,01,10,
18445038725668390751,00000287,false,Rx,0,8,27,10,27,10,27,10,00,00,
18445038725668391007,0000056A,false,Rx,0,8,02,8A,0A,80,A8,A0,AA,8A,
18445038725668391306,00000373,false,Rx,0,8,BA,B9,7F,BC,0C,5C,80,16,
18445038725668391519,00000734,false,Rx,0,8,03,E8,03,E8,64,64,3D,3D,
18445038725668393269,00000285,false,Rx,0,8,00,00,02,19,76,00,08,10,
18445038725668394463,00000362,false,Rx,0,8,02,01,00,00,00,00,00,00,
18445038725668395018,0000038A,false,Rx,0,8,3F,3C,00,00,04,00,00,00,
18445038725668395743,00000370,false,Rx,0,8,05,BE,00,00,00,00,00,00,
18445038725668397237,00000289,false,Rx,0,8,27,10,4E,20,00,06,11,10,
18445038725668397493,00000566,false,Rx,0,8,02,8A,0A,80,A8,A0,AA,8A,
18445038725668397749,00000732,false,Rx,0,8,03,E8,03,E8,64,64,0D,3E,
18445038725668398005,00000677,false,Rx,0,8,00,00,00,00,00,00,00,00,
18445038725668398303,00000424,false,Rx,0,8,04,75,04,1F,86,A9,02,00,
18445038725668399882,00000288,false,Rx,0,8,27,10,4E,20,00,06,01,10,
18445038725668400138,00000564,false,Rx,0,8,02,8A,AA,8A,A8,A0,AA,8A,
18445038725668400437,0000075A,false,Rx,0,8,03,E8,03,E8,64,64,3C,3C,
18445038725668400693,0000028B,false,Rx,0,8,27,10,4E,20,00,06,01,10,
18445038725668400906,00000287,false,Rx,0,8,27,10,27,10,27,10,00,00,
18445038725668401162,0000056B,false,Rx,0,8,AA,02,00,00,80,AA,01,00,
18445038725668401375,00000373,false,Rx,0,8,BA,B9,7F,BC,0C,5C,80,16,
18445038725668403253,00000285,false,Rx,0,8,00,00,02,19,76,00,08,10,
18445038725668404533,00000362,false,Rx,0,8,02,01,00,00,00,00,00,00,
18445038725668405002,00000377,false,Rx,0,8,04,AB,00,05,3D,40,3C,20,
18445038725668406325,00000374,false,Rx,0,8,79,7C,7D,FE,3F,3E,3A,30,
18445038725668407263,00000289,false,Rx,0,8,27,10,4E,20,00,06,11,10,
18445038725668407519,00000567,false,Rx,0,8,AA,02,00,00,80,AA,00,00,
18445038725668407861,00000571,false,Rx,0,8,00,00,00,00,00,00,00,00,
18445038725668409823,00000288,false,Rx,0,8,27,10,4E,20,00,06,01,10,
18445038725668410122,00000565,false,Rx,0,8,AA,02,00,00,80,AA,00,00,
18445038725668410548,0000028B,false,Rx,0,8,27,10,4E,20,00,06,01,10,
18445038725668410804,00000287,false,Rx,0,8,27,10,27,10,27,10,00,00,
18445038725668411018,0000056F,false,Rx,0,8,2A,88,2A,08,00,00,28,0A,
18445038725668411316,00000373,false,Rx,0,8,BA,B9,7F,BC,0C,5C,80,16,
18445038725668411530,00000734,false,Rx,0,8,03,E8,03,E8,64,64,3D,3D,
18445038725668413236,00000285,false,Rx,0,8,00,00,02,19,76,00,08,10,
18445038725668414474,00000362,false,Rx,0,8,02,01,00,00,00,00,00,00,
18445038725668414986,00000389,false,Rx,0,8,02,00,00,3C,3C,00,00,00,
18445038725668415711,00000370,false,Rx,0,8,05,BE,00,00,00,00,00,00,
18445038725668416308,00000375,false,Rx,0,8,0F,0F,00,17,98,00,00,00,
18445038725668417247,00000289,false,Rx,0,8,27,10,4E,20,00,06,11,10,
18445038725668417503,0000056D,false,Rx,0,8,2A,00,00,00,00,00,28,0A,
18445038725668417802,00000732,false,Rx,0,8,03,E8,03,E8,64,64,0D,3E,
18445038725668418228,00000371,false,Rx,0,8,0A,00,00,00,00,00,00,00,
18445038725668419892,00000288,false,Rx,0,8,27,10,4E,20,00,06,01,10,
18445038725668420191,0000056C,false,Rx,0,8,2A,88,02,00,00,00,28,0A,
18445038725668420447,00000154,false,Rx,0,8,99,99,30,99,16,11,F8,5C,
18445038725668420660,0000028B,false,Rx,0,8,27,10,4E,20,00,06,01,10,
18445038725668420916,00000287,false,Rx,0,8,27,10,27,10,27,10,00,00,
18445038725668421130,0000075A,false,Rx,0,8,03,E8,03,E8,64,64,3C,3C,
18445038725668421343,00000373,false,Rx,0,8,BA,B9,7F,BC,0C,5C,80,16,
18445038725668423220,00000285,false,Rx,0,8,00,00,02,19,76,00,08,10,
18445038725668423775,000005A1,false,Rx,0,8,2A,A2,AA,2A,A2,8A,82,A2,
18445038725668424330,00000362,false,Rx,0,8,02,01,00,00,00,00,00,00,
18445038725668424970,00000377,false,Rx,0,8,04,AB,00,05,3D,40,3C,20,
18445038725668425695,00000286,false,Rx,0,8,00,00,00,3D,00,00,0A,00,
18445038725668427274,00000289,false,Rx,0,8,27,10,4E,20,00,06,11,10,
18445038725668429876,00000288,false,Rx,0,8,27,10,4E,20,00,06,01,10,
18445038725668430559,0000028B,false,Rx,0,8,27,10,4E,20,00,06,01,10,
18445038725668430815,00000287,false,Rx,0,8,27,10,27,10,27,10,00,00,
18445038725668431028,0000029B,false,Rx,0,8,43,3D,43,3D,3B,0A,14,3E,
18445038725668431284,00000373,false,Rx,0,8,BA,B9,7F,BC,0C,5C,80,16,
18445038725668431540,00000734,false,Rx,0,8,03,E8,03,E8,64,64,3D,3D,
18445038725668432649,00000185,false,Rx,0,8,08,00,19,00,00,00,00,00,
18445038725668433204,00000285,false,Rx,0,8,00,00,02,19,76,00,08,10,
18445038725668434484,00000362,false,Rx,0,8,02,01,00,00,00,00,00,00,
18445038725668435679,00000370,false,Rx,0,8,05,BE,00,00,00,00,00,00,
18445038725668437172,00000289,false,Rx,0,8,27,10,4E,20,00,06,11,10,
18445038725668437428,00000299,false,Rx,0,8,39,3B,40,42,3B,00,00,00,
18445038725668437684,00000732,false,Rx,0,8,03,E8,03,E8,64,64,0D,3E,
18445038725668438580,00000424,false,Rx,0,8,04,75,04,1F,86,A9,02,00,
18445038725668439860,00000288,false,Rx,0,8,27,10,4E,20,00,06,01,10,
18445038725668440116,00000298,false,Rx,0,8,3C,3C,43,3D,3B,00,00,3E,
18445038725668440372,0000075A,false,Rx,0,8,03,E8,03,E8,64,64,3C,3C,
18445038725668440628,0000028B,false,Rx,0,8,27,10,4E,20,00,06,01,10,
18445038725668440841,00000287,false,Rx,0,8,27,10,27,10,27,10,00,00,
18445038725668441097,0000056A,false,Rx,0,8,02,8A,0A,80,A8,A0,AA,8A,
18445038725668441311,00000373,false,Rx,0,8,BA,B9,7F,BC,0C,5C,80,16,
18445038725668443188,00000285,false,Rx,0,8,00,00,02,19,76,00,08,10,
18445038725668444511,00000362,false,Rx,0,8,02,01,00,00,00,00,00,00,
18445038725668444980,00000377,false,Rx,0,8,04,AB,00,05,3D,40,3C,20,
18445038725668447229,00000289,false,Rx,0,8,27,10,4E,20,00,06,11,10,
18445038725668447485,00000566,false,Rx,0,8,02,8A,0A,80,A8,A0,AA,8A,
18445038725668447783,00000667,false,Rx,0,8,01,31,30,30,00,00,00,00,
18445038725668449831,00000288,false,Rx,0,8,27,10,4E,20,00,06,01,10,
18445038725668450087,00000564,false,Rx,0,8,02,8A,AA,8A,A8,A0,AA,8A,
18445038725668450343,00000665,false,Rx,0,8,01,39,30,30,00,00,00,00,
18445038725668450599,0000028B,false,Rx,0,8,27,10,4E,20,00,06,01,10,
18445038725668450813,000006FA,false,Rx,0,8,02,36,34,34,00,00,00,00,
18445038725668451069,0000056B,false,Rx,0,8,AA,02,00,00,80,AA,01,00,
18445038725668451325,00000287,false,Rx,0,8,27,10,27,10,27,10,00,00,
18445038725668451538,00000373,false,Rx,0,8,BA,B9,7F,BC,0C,5C,80,16,
18445038725668451751,00000734,false,Rx,0,8,03,E8,03,E8,64,64,3D,3D,
18445038725668453202,00000285,false,Rx,0,8,00,00,02,19,76,00,08,10,
18445038725668454482,00000362,false,Rx,0,8,02,01,00,00,00,00,00,00,
18445038725668455676,00000370,false,Rx,0,8,05,BE,00,00,00,00,00,00,
18445038725668457255,00000289,false,Rx,0,8,27,10,4E,20,00,06,11,10,
18445038725668457511,00000567,false,Rx,0,8,AA,02,00,00,80,AA,00,00,
18445038725668457767,00000732,false,Rx,0,8,03,E8,03,E8,64,64,0D,3E,
18445038725668459858,00000288,false,Rx,0,8,27,10,4E,20,00,06,01,10,
18445038725668460156,00000565,false,Rx,0,8,AA,02,00,00,80,AA,00,00,
18445038725668460412,0000075A,false,Rx,0,8,03,E8,03,E8,64,64,3C,3C,
18445038725668460668,0000028B,false,Rx,0,8,27,10,4E,20,00,06,01,10,
18445038725668460882,00000287,false,Rx,0,8,27,10,27,10,27,10,00,00,
18445038725668461138,0000056F,false,Rx,0,8,2A,88,2A,08,00,00,28,0A,
18445038725668461351,00000373,false,Rx,0,8,BA,B9,7F,BB,0C,5C,80,16,
18445038725668463186,00000285,false,Rx,0,8,00,00,02,19,76,00,08,10,
18445038725668464423,00000362,false,Rx,0,8,02,01,00,00,00,00,00,00,
18445038725668465020,00000377,false,Rx,0,8,04,AB,00,05,3D,40,3C,20,
18445038725668467282,00000289,false,Rx,0,8,27,10,4E,20,00,06,11,10,
18445038725668467538,0000056D,false,Rx,0,8,2A,00,00,00,00,00,28,0A,
18445038725668467879,00000668,false,Rx,0,8,02,9B,AD,4F,A2,00,00,00,
18445038725668469842,00000288,false,Rx,0,8,27,10,4E,20,00,06,01,10,
18445038725668470098,0000056C,false,Rx,0,8,2A,88,02,00,00,00,28,0A,
18445038725668470354,00000666,false,Rx,0,8,02,1C,A1,22,38,00,00,00,
18445038725668470610,0000028B,false,Rx,0,8,27,10,4E,20,00,06,01,10,
18445038725668470866,00000287,false,Rx,0,8,27,10,27,10,27,10,00,00,
18445038725668471079,00000734,false,Rx,0,8,03,E8,03,E8,64,64,3D,3D,
18445038725668471335,00000373,false,Rx,0,8,BA,B9,7F,BB,0C,5C,80,16,
18445038725668471591,00000735,false,Rx,0,8,43,00,43,00,25,AB,A0,3D,
18445038725668473170,00000285,false,Rx,0,8,00,00,02,19,76,00,08,10,
18445038725668473809,000005A1,false,Rx,0,8,2A,A2,AA,2A,A2,8A,82,A2,
18445038725668474492,00000362,false,Rx,0,8,02,01,00,00,00,00,00,00,
18445038725668475644,00000370,false,Rx,0,8,05,BE,00,00,00,00,00,00,
18445038725668477265,00000289,false,Rx,0,8,27,10,4E,20,00,06,11,10,
18445038725668477521,00000732,false,Rx,0,8,03,E8,03,E8,64,64,0D,3E,
18445038725668477820,00000733,false,Rx,0,8,39,3A,39,3A,25,AB,A0,3B,
18445038725668478076,00000388,false,Rx,0,8,02,02,00,00,00,00,00,02,
18445038725668478289,00000424,false,Rx,0,8,04,75,04,1F,86,A9,02,00,
18445038725668479911,00000288,false,Rx,0,8,27,10,4E,20,00,06,01,10,
18445038725668480167,0000075A,false,Rx,0,8,03,E8,03,E8,64,64,3C,3C,
18445038725668480465,0000075B,false,Rx,0,8,3C,00,3C,00,25,AB,A0,3C,
18445038725668480679,00000287,false,Rx,0,8,27,10,27,10,27,10,00,00,
18445038725668480935,0000028B,false,Rx,0,8,27,10,4E,20,00,06,01,10,
18445038725668481319,00000373,false,Rx,0,8,BA,B9,7F,BB,0C,5C,80,16,
18445038725668483153,00000285,false,Rx,0,8,00,00,02,19,76,00,08,10,
18445038725668484519,00000362,false,Rx,0,8,02,01,00,00,00,00,00,00,
18445038725668485031,00000377,false,Rx,0,8,04,AB,00,05,3D,40,3C,20,
18445038725668487207,00000289,false,Rx,0,8,27,10,4E,20,00,06,11,10,
18445038725668487463,0000029A,false,Rx,0,8,02,36,34,34,FF,FF,FF,FF,
18445038725668489852,00000288,false,Rx,0,8,27,10,4E,20,00,06,01,10,
18445038725668490535,0000028B,false,Rx,0,8,27,10,4E,20,00,06,01,10,
18445038725668490791,00000287,false,Rx,0,8,27,10,27,10,27,10,00,00,
18445038725668491004,0000056A,false,Rx,0,8,02,8A,0A,80,A8,A0,AA,8A,
18445038725668491260,00000734,false,Rx,0,8,03,E8,03,E8,64,64,3D,3D,
18445038725668491473,00000373,false,Rx,0,8,BA,B9,7F,BB,0C,5C,80,16,
18445038725668493137,00000285,false,Rx,0,8,00,00,02,19,76,00,08,10,
18445038725668494460,00000362,false,Rx,0,8,02,01,00,00,00,00,00,00,
18445038725668495014,0000038A,false,Rx,0,8,3F,3C,00,00,04,00,00,00,
18445038725668495612,00000370,false,Rx,0,8,05,BE,00,00,00,00,00,00,
18445038725668497276,00000289,false,Rx,0,8,27,10,4E,20,00,06,11,10,
18445038725668497574,00000566,false,Rx,0,8,02,8A,0A,80,A8,A0,AA,8A,
18445038725668497873,00000732,false,Rx,0,8,03,E8,03,E8,64,64,0D,3E,
18445038725668499878,00000288,false,Rx,0,8,27,10,4E,20,00,06,01,10,
18445038725668500092,00000564,false,Rx,0,8,02,8A,AA,8A,A8,A0,AA,8A,
18445038725668500348,0000075A,false,Rx,0,8,03,E8,03,E8,64,64,3C,3C,
18445038725668500604,0000028B,false,Rx,0,8,27,10,4E,20,00,06,01,10,
18445038725668500817,00000287,false,Rx,0,8,27,10,27,10,27,10,00,00,
18445038725668501073,0000056B,false,Rx,0,8,AA,02,00,00,80,AA,01,00,
18445038725668501329,00000373,false,Rx,0,8,BA,B9,7F,BB,0C,5C,80,16,
18445038725668503121,00000285,false,Rx,0,8,00,00,02,19,76,00,08,10,
18445038725668504316,00000362,false,Rx,0,8,02,01,00,00,00,00,00,00,
18445038725668504998,00000377,false,Rx,0,8,04,AB,00,05,3D,40,3C,20,
18445038725668506321,00000374,false,Rx,0,8,79,7C,7C,FE,3F,3E,3A,30,
18445038725668507217,00000289,false,Rx,0,8,27,10,4E,20,00,06,11,10,
18445038725668507473,00000567,false,Rx,0,8,AA,02,00,00,80,AA,00,00,
18445038725668509820,00000288,false,Rx,0,8,27,10,4E,20,00,06,01,10,
18445038725668510076,00000565,false,Rx,0,8,AA,02,00,00,80,AA,00,00,
18445038725668510545,0000028B,false,Rx,0,8,27,10,4E,20,00,06,01,10,
18445038725668510758,00000287,false,Rx,0,8,27,10,27,10,27,10,00,00,
18445038725668511014,0000056F,false,Rx,0,8,2A,88,2A,08,00,00,28,0A,
18445038725668511270,00000734,false,Rx,0,8,03,E8,03,E8,64,64,3D,3D,
18445038725668511484,00000373,false,Rx,0,8,BA,B9,7F,BC,0C,5C,80,16,
18445038725668513105,00000285,false,Rx,0,8,00,00,02,19,76,00,08,10,
18445038725668514470,00000362,false,Rx,0,8,02,01,00,00,00,00,00,00,
18445038725668515025,00000389,false,Rx,0,8,02,00,00,3C,3C,00,00,00,
18445038725668515580,00000370,false,Rx,0,8,05,BE,00,00,00,00,00,00,
18445038725668516347,00000375,false,Rx,0,8,0F,0F,00,17,98,00,00,00,
18445038725668517243,00000289,false,Rx,0,8,27,10,4E,20,00,06,11,10,
18445038725668517499,0000056D,false,Rx,0,8,2A,00,00,00,00,00,28,0A,
18445038725668517755,00000732,false,Rx,0,8,03,E8,03,E8,64,64,0D,3E,
18445038725668518097,00000424,false,Rx,0,8,04,75,04,1F,86,A9,02,00,
18445038725668518353,00000371,false,Rx,0,8,0A,00,00,00,00,00,00,00,
18445038725668519889,00000288,false,Rx,0,8,27,10,4E,20,00,06,01,10,
18445038725668520187,0000056C,false,Rx,0,8,2A,88,02,00,00,00,28,0A,
18445038725668520401,00000154,false,Rx,0,8,99,99,30,99,16,11,F8,5C,
18445038725668520614,0000028B,false,Rx,0,8,27,10,4E,20,00,06,01,10,
18445038725668520870,00000287,false,Rx,0,8,27,10,27,10,27,10,00,00,
18445038725668521083,0000075A,false,Rx,0,8,03,E8,03,E8,64,64,3C,3C,
18445038725668521339,00000373,false,Rx,0,8,BA,B9,7F,BC,0C,5C,80,16,
18445038725668523089,00000285,false,Rx,0,8,00,00,02,19,76,00,08,10,
18445038725668523814,000005A1,false,Rx,0,8,2A,A2,AA,2A,A2,8A,82,A2,
18445038725668524497,00000362,false,Rx,0,8,02,01,00,00,00,00,00,00,
18445038725668525009,00000377,false,Rx,0,8,04,AB,00,05,3D,40,3C,20,
18445038725668525563,00000286,false,Rx,0,8,00,00,00,3D,00,00,0A,00,
18445038725668526331,0000066B,false,Rx,0,8,00,39,34,39,39,44,30,35,
18445038725668526545,0000066C,false,Rx,0,8,02,9B,DE,18,73,00,00,00,
18445038725668527270,00000289,false,Rx,0,8,27,10,4E,20,00,06,11,10,
18445038725668529915,00000288,false,Rx,0,8,27,10,4E,20,00,06,01,10,
18445038725668530555,00000287,false,Rx,0,8,27,10,27,10,27,10,00,00,
18445038725668530769,0000028B,false,Rx,0,8,27,10,4E,20,00,06,01,10,
18445038725668531025,0000029B,false,Rx,0,8,43,3D,43,3D,3B,0A,14,3E,
18445038725668531323,00000373,false,Rx,0,8,BA,B9,7F,BC,0C,5C,80,16,
18445038725668531579,00000734,false,Rx,0,8,03,E8,03,E8,64,64,3D,3D,
18445038725668532646,00000185,false,Rx,0,8,08,00,19,00,00,00,00,00,
18445038725668533073,00000285,false,Rx,0,8,00,00,02,19,76,00,08,10,
18445038725668534481,00000362,false,Rx,0,8,02,01,00,00,00,00,00,00,
18445038725668535035,00000569,false,Rx,0,8,AA,80,82,02,00,00,00,00,
18445038725668535547,00000370,false,Rx,0,8,05,BE,00,00,00,00,00,00,
18445038725668537254,00000289,false,Rx,0,8,27,10,4E,20,00,06,11,10,
18445038725668537510,00000299,false,Rx,0,8,39,3B,40,42,3B,00,00,00,
18445038725668537808,00000732,false,Rx,0,8,03,E8,03,E8,64,64,0D,3E,
18445038725668539899,00000288,false,Rx,0,8,27,10,4E,20,00,06,01,10,
18445038725668540155,00000298,false,Rx,0,8,3C,3C,43,3D,3B,00,00,3E,
18445038725668540411,0000075A,false,Rx,0,8,03,E8,03,E8,64,64,3C,3C,
18445038725668540667,00000287,false,Rx,0,8,27,10,27,10,27,10,00,00,
18445038725668540880,0000028B,false,Rx,0,8,27,10,4E,20,00,06,01,10,
18445038725668541136,0000056A,false,Rx,0,8,02,8A,0A,80,A8,A0,AA,8A,
18445038725668541350,00000373,false,Rx,0,8,BA,B9,7F,BB,0C,5C,80,16,
18445038725668543056,00000285,false,Rx,0,8,00,00,02,19,76,00,08,10,
18445038725668544379,00000362,false,Rx,0,8,02,01,00,00,00,00,00,00,
18445038725668545019,00000377,false,Rx,0,8,04,AB,00,05,3D,40,3C,20,
18445038725668547280,00000289,false,Rx,0,8,27,10,4E,20,00,06,11,10,
18445038725668547579,00000566,false,Rx,0,8,02,8A,0A,80,A8,A0,AA,8A,
18445038725668549840,00000288,false,Rx,0,8,27,10,4E,20,00,06,01,10,
18445038725668550096,00000564,false,Rx,0,8,02,8A,AA,8A,A8,A0,AA,8A,
18445038725668550438,000006FA,false,Rx,0,8,00,4A,4D,41,58,44,47,47,
18445038725668550694,0000028B,false,Rx,0,8,27,10,4E,20,00,06,01,10,
18445038725668550907,00000287,false,Rx,0,8,27,10,27,10,27,10,00,00,
18445038725668551163,0000056B,false,Rx,0,8,AA,02,00,00,80,AA,01,00,
18445038725668551376,00000373,false,Rx,0,8,BA,B9,7F,BB,0C,5C,80,16,
18445038725668551632,00000734,false,Rx,0,8,03,E8,03,E8,64,64,3D,3D,
18445038725668553040,00000285,false,Rx,0,8,00,00,02,19,76,00,08,10,
18445038725668554448,00000362,false,Rx,0,8,02,01,00,00,00,00,00,00,
18445038725668555046,00000568,false,Rx,0,8,00,02,80,0A,00,00,A8,AA,
18445038725668555515,00000370,false,Rx,0,8,05,BE,00,00,00,00,00,00,
18445038725668557264,00000289,false,Rx,0,8,27,10,4E,20,00,06,11,10,
18445038725668557563,00000567,false,Rx,0,8,AA,02,00,00,80,AA,00,00,
18445038725668557862,00000732,false,Rx,0,8,03,E8,03,E8,64,64,0D,3E,
18445038725668558075,00000424,false,Rx,0,8,04,75,04,1F,86,A9,02,00,
18445038725668559824,00000288,false,Rx,0,8,27,10,4E,20,00,06,01,10,
18445038725668560080,00000565,false,Rx,0,8,AA,02,00,00,80,AA,00,00,
18445038725668560336,0000075A,false,Rx,0,8,03,E8,03,E8,64,64,3C,3C,
18445038725668560592,00000287,false,Rx,0,8,27,10,27,10,27,10,00,00,
18445038725668560805,0000028B,false,Rx,0,8,27,10,4E,20,00,06,01,10,
18445038725668561104,0000056F,false,Rx,0,8,2A,88,2A,08,00,00,28,0A,
18445038725668561317,00000373,false,Rx,0,8,BA,B9,7F,BC,0C,5C,80,16,
18445038725668563024,00000285,false,Rx,0,8,00,00,02,19,76,00,08,10,
18445038725668564475,00000362,false,Rx,0,8,02,01,00,00,00,00,00,00,
18445038725668565029,00000377,false,Rx,0,8,04,AD,00,05,3D,40,3C,20,
18445038725668567205,00000289,false,Rx,0,8,27,10,4E,20,00,06,11,10,
18445038725668567504,0000056D,false,Rx,0,8,2A,00,00,00,00,00,28,0A,
18445038725668569851,00000288,false,Rx,0,8,27,10,4E,20,00,06,01,10,
18445038725668570149,0000056C,false,Rx,0,8,2A,88,02,00,00,00,28,0A,
18445038725668570491,00000287,false,Rx,0,8,27,10,27,10,27,10,00,00,
18445038725668570704,0000028B,false,Rx,0,8,27,10,4E,20,00,06,01,10,
18445038725668571003,00000734,false,Rx,0,8,03,E8,03,E8,64,64,3D,3D,
18445038725668571344,00000373,false,Rx,0,8,BA,B9,7F,BC,0C,5C,80,16,
18445038725668571557,00000735,false,Rx,0,8,43,00,43,00,25,AB,A0,3D,
18445038725668573008,00000285,false,Rx,0,8,00,00,02,19,76,00,08,10,
18445038725668573819,000005A1,false,Rx,0,8,2A,A2,AA,2A,A2,8A,82,A2,
18445038725668574459,00000362,false,Rx,0,8,02,01,00,00,00,00,00,00,
18445038725668575013,00000563,false,Rx,0,8,00,20,80,A2,02,00,00,00,
18445038725668575483,00000370,false,Rx,0,8,05,BE,00,00,00,00,00,00,
18445038725668577232,00000289,false,Rx,0,8,27,10,4E,20,00,06,11,10,
18445038725668577488,00000732,false,Rx,0,8,03,E8,03,E8,64,64,0D,3E,
18445038725668577744,00000733,false,Rx,0,8,39,3A,39,3A,25,AB,A0,3B,
18445038725668577957,00000388,false,Rx,0,8,02,02,00,00,00,00,00,02,
18445038725668579877,00000288,false,Rx,0,8,27,10,4E,20,00,06,01,10,
18445038725668580091,0000075A,false,Rx,0,8,03,E8,03,E8,64,64,3C,3C,
18445038725668580346,0000075B,false,Rx,0,8,3C,00,3C,00,25,AB,A0,3C,
18445038725668580602,00000287,false,Rx,0,8,27,10,27,10,27,10,00,00,
18445038725668580816,0000028B,false,Rx,0,8,27,10,4E,20,00,06,01,10,
18445038725668581328,00000373,false,Rx,0,8,BA,B9,7F,BC,0C,5C,80,16,
18445038725668582992,00000285,false,Rx,0,8,00,00,02,19,76,00,08,10,
18445038725668584314,00000362,false,Rx,0,8,02,01,00,00,00,00,00,00,
18445038725668584997,00000377,false,Rx,0,8,04,AB,00,05,3D,40,3C,20,
18445038725668587258,00000289,false,Rx,0,8,27,10,4E,20,00,06,11,10,
18445038725668587514,0000029A,false,Rx,0,8,00,4A,4D,41,58,44,47,47,
18445038725668589818,00000288,false,Rx,0,8,27,10,4E,20,00,06,01,10,
18445038725668590458,00000287,false,Rx,0,8,27,10,27,10,27,10,00,00,
18445038725668590672,0000028B,false,Rx,0,8,27,10,4E,20,00,06,01,10,
18445038725668590928,0000056A,false,Rx,0,8,02,8A,0A,80,A8,A0,AA,8A,
18445038725668591184,00000734,false,Rx,0,8,03,E8,03,E8,64,64,3D,3D,
18445038725668591397,00000373,false,Rx,0,8,BA,B9,7F,BC,0C,5C,80,16,
18445038725668592976,00000285,false,Rx,0,8,00,00,02,19,76,00,08,10,
18445038725668594426,00000362,false,Rx,0,8,02,01,00,00,00,00,00,00,
18445038725668595024,0000038A,false,Rx,0,8,3F,3C,00,00,04,00,00,00,
18445038725668595450,00000370,false,Rx,0,8,05,BE,00,00,00,00,00,00,
18445038725668597242,00000289,false,Rx,0,8,27,10,4E,20,00,06,11,10,
18445038725668597498,00000566,false,Rx,0,8,02,8A,0A,80,A8,A0,AA,8A,
18445038725668597797,00000732,false,Rx,0,8,03,E8,03,E8,64,64,0D,3E,
18445038725668598010,00000424,false,Rx,0,8,04,75,04,1F,86,A9,02,00,
18445038725668599888,00000288,false,Rx,0,8,27,10,4E,20,00,06,01,10,
18445038725668600144,00000564,false,Rx,0,8,02,8A,AA,8A,A8,A0,AA,8A,
18445038725668600400,0000075A,false,Rx,0,8,03,E8,03,E8,64,64,3C,3C,
18445038725668600613,00000287,false,Rx,0,8,27,10,27,10,27,10,00,00,
18445038725668600869,0000028B,false,Rx,0,8,27,10,4E,20,00,06,01,10,
18445038725668601125,0000056B,false,Rx,0,8,AA,02,00,00,80,AA,01,00,
18445038725668601381,00000373,false,Rx,0,8,BA,B9,7F,BC,0C,5C,80,16,
18445038725668602959,00000285,false,Rx,0,8,00,00,02,19,76,00,08,10,
18445038725668604495,00000362,false,Rx,0,8,02,01,00,00,00,00,00,00,
18445038725668605007,00000377,false,Rx,0,8,04,AB,00,05,3D,40,3C,20,
18445038725668606330,00000374,false,Rx,0,8,79,7C,7D,FE,3F,3E,3A,30,
18445038725668607269,00000289,false,Rx,0,8,27,10,4E,20,00,06,11,10,
18445038725668607567,00000567,false,Rx,0,8,AA,02,00,00,80,AA,00,00,
18445038725668609829,00000288,false,Rx,0,8,27,10,4E,20,00,06,01,10,
18445038725668610085,00000565,false,Rx,0,8,AA,02,00,00,80,AA,00,00,
18445038725668610426,00000287,false,Rx,0,8,27,10,27,10,27,10,00,00,
18445038725668610639,0000028B,false,Rx,0,8,27,10,4E,20,00,06,01,10,
18445038725668610938,0000056F,false,Rx,0,8,2A,88,2A,08,00,00,28,0A,
18445038725668611194,00000734,false,Rx,0,8,03,E8,03,E8,64,64,3D,3D,
18445038725668611450,00000373,false,Rx,0,8,BA,B9,7F,BC,0C,5C,80,16,
18445038725668612943,00000285,false,Rx,0,8,00,00,02,19,76,00,08,10,
18445038725668614437,00000362,false,Rx,0,8,02,01,00,00,00,00,00,00,
18445038725668615034,00000389,false,Rx,0,8,02,00,00,3C,3C,00,00,00,
18445038725668615418,00000370,false,Rx,0,8,05,BE,00,00,00,00,00,00,
18445038725668616357,00000375,false,Rx,0,8,0F,0F,00,17,98,00,00,00,
18445038725668617253,00000289,false,Rx,0,8,27,10,4E,20,00,06,11,10,
18445038725668617551,0000056D,false,Rx,0,8,2A,00,00,00,00,00,28,0A,
18445038725668617807,00000732,false,Rx,0,8,03,E8,03,E8,64,64,0D,3E,
18445038725668618063,00000371,false,Rx,0,8,0A,00,00,00,00,00,00,00,
18445038725668619898,00000288,false,Rx,0,8,27,10,4E,20,00,06,01,10,
18445038725668620111,00000154,false,Rx,0,8,99,99,30,99,16,11,F8,5C,
18445038725668620367,0000056C,false,Rx,0,8,2A,88,02,00,00,00,28,0A,
18445038725668620581,00000287,false,Rx,0,8,27,10,27,10,27,10,00,00,
18445038725668620837,0000028B,false,Rx,0,8,27,10,4E,20,00,06,01,10,
18445038725668621050,0000075A,false,Rx,0,8,03,E8,03,E8,64,64,3C,3C,
18445038725668621306,00000373,false,Rx,0,8,BA,B9,7F,BC,0C,5C,80,16,
18445038725668622927,00000285,false,Rx,0,8,00,00,02,19,76,00,08,10,
18445038725668623866,000005A1,false,Rx,0,8,2A,A2,AA,2A,A2,8A,82,A2,
18445038725668624378,00000362,false,Rx,0,8,02,01,00,00,00,00,00,00,
18445038725668625018,00000377,false,Rx,0,8,04,AB,00,05,3D,40,3C,20,
18445038725668625402,00000286,false,Rx,0,8,00,00,00,3D,00,00,0A,00,
18445038725668627236,00000289,false,Rx,0,8,27,10,4E,20,00,06,11,10,
18445038725668630010,00000288,false,Rx,0,8,27,10,4E,20,00,06,01,10,
